   0.597040 1  63C             Rx   d 3 3B E5 01
   0.686980 1  55B             Rx   d 1 01
   1.597020 1  63C             Rx   d 3 3B E6 00
   1.686920 1  55B             Rx   d 1 01
   2.597290 1  63C             Rx   d 6 3B E7 FF FF FF FF
   2.688590 1  55B             Rx   d 1 01
   3.597440 1  63C             Rx   d 8 3B C2 03 00 2F 00 03 04
   3.687510 1  55B             Rx   d 1 01
   4.597420 1  63C             Rx   d 8 80 08 3B C3 38 03 CF FF
   4.617170 1  63C             Rx   d 5 C0 77 00 80 00
   4.687230 1  55B             Rx   d 1 01
   5.596990 1  63C             Rx   d 3 3B C4 0A
   5.687570 1  55B             Rx   d 1 01
   6.596990 1  63C             Rx   d 3 3B CE 01
   6.687280 1  55B             Rx   d 1 01
   7.596970 1  63C             Rx   d 3 3B CF 05
   7.687020 1  55B             Rx   d 1 01
   8.597440 1  63C             Rx   d 8 80 08 3B D0 1E C0 23 00
   8.617180 1  63C             Rx   d 5 C0 60 00 00 00
   8.687370 1  55B             Rx   d 1 01
   9.597420 1  63C             Rx   d 8 90 07 3B D1 05 41 75 78
   9.617910 1  63C             Rx   d 4 D0 49 6E 20
   9.687090 1  55B             Rx   d 1 01
  10.596990 1  63C             Rx   d 3 3B D4 FF
  10.687120 1  55B             Rx   d 1 01
  11.596970 1  63C             Rx   d 3 3B D5 01
  11.687190 1  55B             Rx   d 1 01
  12.597640 1  63C             Rx   d 3 3B D6 FF
  12.687200 1  55B             Rx   d 1 01
  13.597280 1  63C             Rx   d 6 3B D7 FF FF FF FF
  13.687170 1  55B             Rx   d 1 01
  14.597320 1  63C             Rx   d 6 3B D8 FF FF FF FF
  14.686600 1  55B             Rx   d 1 01
  15.597050 1  63C             Rx   d 3 3B DB FF
  15.599910 1  6C6             Rx   d 7 80 03 1A 52 00 00 05
  15.687130 1  55B             Rx   d 1 01
  16.391170 1  6C6             Rx   d 8 80 05 1A 57 83 00 00 05
  16.440440 1  6C6             Rx   d 2 C0 00
  16.597050 1  63C             Rx   d 3 3B DC FF
  16.686670 1  55B             Rx   d 1 01
  16.861970 1  6C6             Rx   d 7 90 03 1A 53 00 00 05
  17.491150 1  6C6             Rx   d 7 80 03 1A 54 00 00 05
  17.597040 1  63C             Rx   d 3 3B DD FF
  17.686590 1  55B             Rx   d 1 01
  18.597000 1  63C             Rx   d 3 3B E5 01
  18.687240 1  55B             Rx   d 1 01
  19.101820 1  6C6             Rx   d 7 80 03 1A 52 00 05 05
  19.152480 1  6C6             Rx   d 8 80 05 1A 57 93 04 00 05
  19.202560 1  6C6             Rx   d 2 C0 00
  19.543450 1  6C6             Rx   d 7 90 03 1A 53 00 05 05
  19.596980 1  63C             Rx   d 3 3B E6 00
  19.686760 1  55B             Rx   d 1 01
  19.723230 1  6C6             Rx   d 8 80 05 1A 57 93 09 00 05
  19.771920 1  6C6             Rx   d 2 C0 00
  20.162660 1  6C6             Rx   d 7 80 03 1A 54 00 05 05
  20.353340 1  6C6             Rx   d 8 80 05 1A 57 9F 0E 00 0A
  20.401900 1  6C6             Rx   d 2 C0 00
  20.522770 1  6C6             Rx   d 8 80 05 1A 57 9F 18 00 0A
  20.571980 1  6C6             Rx   d 2 C0 00
  20.597340 1  63C             Rx   d 6 3B E7 FF FF FF FF
  20.687290 1  55B             Rx   d 1 01
  20.692710 1  6C6             Rx   d 8 80 05 1A 57 9F 22 00 0A
  20.743020 1  6C6             Rx   d 2 C0 00
  20.792810 1  6C6             Rx   d 7 90 03 1A 53 00 0A 05
  20.862560 1  6C6             Rx   d 8 80 05 1A 57 9F 2C 00 0A
  20.912430 1  6C6             Rx   d 2 C0 00
  21.032960 1  6C6             Rx   d 8 80 05 1A 57 9F 36 00 0A
  21.082200 1  6C6             Rx   d 2 C0 00
  21.202960 1  6C6             Rx   d 8 80 05 1A 57 9F 40 00 0A
  21.252400 1  6C6             Rx   d 2 C0 00
  21.323100 1  6C6             Rx   d 7 80 03 1A 54 00 0A 05
  21.373350 1  6C6             Rx   d 8 80 05 1A 57 9F 4A 00 0A
  21.422370 1  6C6             Rx   d 2 C0 00
  21.544420 1  6C6             Rx   d 8 80 05 1A 57 9F 54 00 0A
  21.592540 1  6C6             Rx   d 2 C0 00
  21.598080 1  63C             Rx   d 8 3B C2 03 00 2F 00 03 04
  21.686830 1  55B             Rx   d 1 01
  21.713470 1  6C6             Rx   d 8 80 05 1A 57 9F 5E 00 0A
  21.762810 1  6C6             Rx   d 2 C0 00
  21.893320 1  6C6             Rx   d 8 80 05 1A 57 9F 68 00 0A
  21.943490 1  6C6             Rx   d 7 90 03 1A 53 00 0F 05
  21.992510 1  6C6             Rx   d 2 C0 00
  22.053470 1  6C6             Rx   d 7 80 03 1A 54 00 0F 05
  22.597430 1  63C             Rx   d 8 80 08 3B C3 38 03 CF FF
  22.617160 1  63C             Rx   d 5 C0 77 00 80 00
  22.687270 1  55B             Rx   d 1 01
  23.596970 1  63C             Rx   d 3 3B C4 0A
  23.687240 1  55B             Rx   d 1 01
  24.596980 1  63C             Rx   d 3 3B CE 01
  24.687220 1  55B             Rx   d 1 01
  25.596970 1  63C             Rx   d 3 3B CF 05
  25.687190 1  55B             Rx   d 1 01
  26.597440 1  63C             Rx   d 8 80 08 3B D0 1E C0 23 00
  26.617170 1  63C             Rx   d 5 C0 60 00 00 00
  26.686880 1  55B             Rx   d 1 01
  27.085840 1  6C6             Rx   d 7 80 03 1A 52 00 00 05
  27.597470 1  63C             Rx   d 8 90 07 3B D1 05 41 75 78
  27.616070 1  6C6             Rx   d 7 90 03 1A 53 00 00 05
  27.618360 1  63C             Rx   d 4 D0 49 6E 20
  27.687050 1  55B             Rx   d 1 01
  28.246350 1  6C6             Rx   d 7 80 03 1A 54 00 00 05
  28.597240 1  63C             Rx   d 3 3B D4 FF
  28.676670 1  6C6             Rx   d 7 80 03 1A 52 00 05 05
  28.686980 1  55B             Rx   d 1 01
  29.127150 1  6C6             Rx   d 7 90 03 1A 53 00 05 05
  29.597260 1  63C             Rx   d 3 3B D5 01
  29.686950 1  55B             Rx   d 1 01
  29.757140 1  6C6             Rx   d 7 80 03 1A 54 00 05 05
  30.367480 1  6C6             Rx   d 7 90 03 1A 53 00 0A 05
  30.597630 1  63C             Rx   d 3 3B D6 FF
  30.686920 1  55B             Rx   d 1 01
  30.908760 1  6C6             Rx   d 7 80 03 1A 54 00 0A 05
  31.538230 1  6C6             Rx   d 7 90 03 1A 53 00 0F 05
  31.597280 1  63C             Rx   d 6 3B D7 FF FF FF FF
  31.647970 1  6C6             Rx   d 7 80 03 1A 54 00 0F 05
  31.686850 1  55B             Rx   d 1 01
  32.597250 1  63C             Rx   d 6 3B D8 FF FF FF FF
  32.686840 1  55B             Rx   d 1 01
  33.596990 1  63C             Rx   d 3 3B DB FF
  33.686900 1  55B             Rx   d 1 01
  34.596980 1  63C             Rx   d 3 3B DC FF
  34.686750 1  55B             Rx   d 1 01
  35.596970 1  63C             Rx   d 3 3B DD FF
  35.687900 1  55B             Rx   d 1 01
  36.596990 1  63C             Rx   d 3 3B E5 01
  36.686700 1  55B             Rx   d 1 01
  37.596980 1  63C             Rx   d 3 3B E6 00
  37.686660 1  55B             Rx   d 1 01
  38.597280 1  63C             Rx   d 6 3B E7 FF FF FF FF
  38.686680 1  55B             Rx   d 1 01
  39.598080 1  63C             Rx   d 8 3B C2 03 00 2F 00 03 04
  39.686540 1  55B             Rx   d 1 01
  40.597410 1  63C             Rx   d 8 80 08 3B C3 38 03 CF FF
  40.617160 1  63C             Rx   d 5 C0 77 00 80 00
  40.686570 1  55B             Rx   d 1 01
  41.596970 1  63C             Rx   d 3 3B C4 0A
  41.686580 1  55B             Rx   d 1 01
  42.596970 1  63C             Rx   d 3 3B CE 01
  42.686540 1  55B             Rx   d 1 01
  43.596960 1  63C             Rx   d 3 3B CF 05
  43.686710 1  55B             Rx   d 1 01
  44.597430 1  63C             Rx   d 8 80 08 3B D0 1E C0 23 00
  44.617160 1  63C             Rx   d 5 C0 60 00 00 00
  44.687830 1  55B             Rx   d 1 01
  45.597400 1  63C             Rx   d 8 90 07 3B D1 05 41 75 78
  45.617050 1  63C             Rx   d 4 D0 49 6E 20
  45.686540 1  55B             Rx   d 1 01
  46.596970 1  63C             Rx   d 3 3B D4 FF
  46.686560 1  55B             Rx   d 1 01
  47.596960 1  63C             Rx   d 3 3B D5 01
  47.686520 1  55B             Rx   d 1 01
  48.597630 1  63C             Rx   d 3 3B D6 FF
  48.686550 1  55B             Rx   d 1 01
  49.597270 1  63C             Rx   d 6 3B D7 FF FF FF FF
  49.687810 1  55B             Rx   d 1 01
  50.597240 1  63C             Rx   d 6 3B D8 FF FF FF FF
  50.686520 1  55B             Rx   d 1 01
  51.596990 1  63C             Rx   d 3 3B DB FF
  51.686500 1  55B             Rx   d 1 01
  52.596970 1  63C             Rx   d 3 3B DC FF
  52.686530 1  55B             Rx   d 1 01
  53.596970 1  63C             Rx   d 3 3B DD FF
  53.686720 1  55B             Rx   d 1 01
  54.598310 1  63C             Rx   d 3 3B E5 01
  54.686510 1  55B             Rx   d 1 01
  55.596960 1  63C             Rx   d 3 3B E6 00
  55.686530 1  55B             Rx   d 1 01
  56.597270 1  63C             Rx   d 6 3B E7 FF FF FF FF
  56.686520 1  55B             Rx   d 1 01
  57.597430 1  63C             Rx   d 8 3B C2 03 00 2F 00 03 04
  57.686540 1  55B             Rx   d 1 01
  58.597400 1  63C             Rx   d 8 80 08 3B C3 38 03 CF FF
  58.617150 1  63C             Rx   d 5 C0 77 00 80 00
  58.687800 1  55B             Rx   d 1 01
  59.596960 1  63C             Rx   d 3 3B C4 0A
  59.686530 1  55B             Rx   d 1 01
  60.596960 1  63C             Rx   d 3 3B CE 01
  60.686530 1  55B             Rx   d 1 01
  61.596950 1  63C             Rx   d 3 3B CF 05
  61.686520 1  55B             Rx   d 1 01
  62.597410 1  63C             Rx   d 8 80 08 3B D0 1E C0 23 00
  62.617150 1  63C             Rx   d 5 C0 60 00 00 00
  62.686720 1  55B             Rx   d 1 01
  63.597400 1  63C             Rx   d 8 90 07 3B D1 05 41 75 78
  63.607010 1  63C             Rx   d 4 D0 49 6E 20
  63.686740 1  55B             Rx   d 1 01
  64.596960 1  63C             Rx   d 3 3B D4 FF
  64.686680 1  55B             Rx   d 1 01
  65.596950 1  63C             Rx   d 3 3B D5 01
  65.686520 1  55B             Rx   d 1 01
  66.596970 1  63C             Rx   d 3 3B D6 FF
  66.686750 1  55B             Rx   d 1 01
  67.597260 1  63C             Rx   d 6 3B D7 FF FF FF FF
  67.686520 1  55B             Rx   d 1 01
  68.597880 1  63C             Rx   d 6 3B D8 FF FF FF FF
  68.686530 1  55B             Rx   d 1 01
  69.596980 1  63C             Rx   d 3 3B DB FF
  69.686530 1  55B             Rx   d 1 01
  70.596960 1  63C             Rx   d 3 3B DC FF
  70.686520 1  55B             Rx   d 1 01
  71.596880 1  63C             Rx   d 3 3B DD FF
  71.686560 1  55B             Rx   d 1 01
  72.384390 1  6C6             Rx   d 4 40 00 01 0A
  72.596880 1  63C             Rx   d 3 3B E5 01
  72.686470 1  55B             Rx   d 1 01
  72.908670 1  6C6             Rx   d 2 1B C2
  72.927370 1  63C             Rx   d 8 4B C2 03 00 2F 00 03 04
  72.958600 1  6C6             Rx   d 2 1B C3
  72.977380 1  63C             Rx   d 8 80 08 4B C3 38 03 CF FF
  72.987730 1  63C             Rx   d 5 C0 77 00 80 00
  73.008750 1  6C6             Rx   d 2 1B C1
  73.027370 1  63C             Rx   d 8 80 48 4B C1 03 00 2F 00
  73.037410 1  63C             Rx   d 8 C0 03 04 08 00 38 03 CF
  73.047390 1  63C             Rx   d 8 C1 FF 77 00 80 00 0A 01
  73.057420 1  63C             Rx   d 8 C2 05 08 00 1E C0 23 00
  73.067370 1  63C             Rx   d 8 C3 60 00 00 00 07 00 05
  73.077360 1  63C             Rx   d 8 C4 41 75 78 49 6E 20 FF
  73.088370 1  63C             Rx   d 8 C5 01 FF FF FF FF FF FF
  73.097430 1  63C             Rx   d 8 C6 FF FF FF FF FF FF 01
  73.107480 1  63C             Rx   d 8 C7 00 00 03 00 00 00 00
  73.117420 1  63C             Rx   d 8 C8 04 00 00 00 00 01 01
  73.127170 1  63C             Rx   d 6 C9 00 FF FF FF FF
  73.687270 1  55B             Rx   d 1 01
  74.026840 1  63C             Rx   d 3 3B E6 00
  74.147500 1  6C6             Rx   d 3 2B D5 01
  74.187220 1  63C             Rx   d 3 4B D5 01
  74.198240 1  6C6             Rx   d 3 2B E5 01
  74.226840 1  63C             Rx   d 3 4B E5 01
  74.248950 1  6C6             Rx   d 3 2B E6 00
  74.316880 1  63C             Rx   d 3 4B E6 00
  74.398060 1  6C6             Rx   d 2 1A 42
  74.447460 1  6C6             Rx   d 2 1A 43
  74.498690 1  6C6             Rx   d 2 1A 41
  74.648120 1  6C6             Rx   d 7 80 03 1A 52 00 00 05
  74.687290 1  55B             Rx   d 1 01
  75.178470 1  6C6             Rx   d 7 80 03 1A 54 00 00 05
  75.307290 1  63C             Rx   d 6 3B E7 FF FF FF FF
  75.608950 1  6C6             Rx   d 7 90 03 1A 53 00 00 05
  75.687160 1  55B             Rx   d 1 01
  76.149310 1  6C6             Rx   d 8 80 05 1A 57 83 00 00 05
  76.201010 1  6C6             Rx   d 8 90 05 1A 5D 84 00 00 05
  76.248670 1  6C6             Rx   d 2 C0 00
  76.298960 1  6C6             Rx   d 2 D0 00
  76.317500 1  63C             Rx   d 8 3B C2 03 00 2F 00 03 04
  76.687180 1  55B             Rx   d 1 01
  77.049480 1  6C6             Rx   d 7 80 03 1A 52 00 05 05
  77.317390 1  63C             Rx   d 8 80 08 3B C3 38 03 CF FF
  77.327190 1  63C             Rx   d 5 C0 77 00 80 00
  77.499510 1  6C6             Rx   d 7 80 03 1A 54 00 05 05
  77.579580 1  6C6             Rx   d 8 80 05 1A 57 93 04 00 05
  77.629490 1  6C6             Rx   d 2 C0 00
  77.687070 1  55B             Rx   d 1 01
  78.111450 1  6C6             Rx   d 7 80 03 1A 53 00 05 05
  78.169830 1  6C6             Rx   d 8 80 05 1A 57 93 09 00 05
  78.219540 1  6C6             Rx   d 2 C0 00
  78.306960 1  63C             Rx   d 3 3B C4 0A
  78.687090 1  55B             Rx   d 1 01
  78.750390 1  6C6             Rx   d 7 80 03 1A 54 00 0A 05
  78.827110 1  6C6             Rx   d 8 80 05 1A 57 9F 0E 00 0A
  78.869860 1  6C6             Rx   d 2 C0 00
  79.000590 1  6C6             Rx   d 8 80 05 1A 57 9F 18 00 0A
  79.049880 1  6C6             Rx   d 2 C0 00
  79.180650 1  6C6             Rx   d 8 80 05 1A 57 9F 22 00 0A
  79.231450 1  6C6             Rx   d 2 C0 00
  79.306980 1  63C             Rx   d 3 3B CE 01
  79.360930 1  6C6             Rx   d 8 80 05 1A 57 9F 2C 00 0A
  79.411800 1  6C6             Rx   d 7 90 03 1A 53 00 0A 05
  79.470050 1  6C6             Rx   d 2 C0 00
  79.660880 1  6C6             Rx   d 8 80 05 1A 57 9F 36 00 0A
  79.687650 1  55B             Rx   d 1 01
  79.710230 1  6C6             Rx   d 2 C0 00
  79.841020 1  6C6             Rx   d 8 80 05 1A 57 9F 40 00 0A
  79.890440 1  6C6             Rx   d 2 C0 00
  79.940980 1  6C6             Rx   d 7 80 03 1A 54 00 0F 05
  80.022160 1  6C6             Rx   d 8 80 05 1A 57 9F 4A 00 0A
  80.070450 1  6C6             Rx   d 2 C0 00
  80.201160 1  6C6             Rx   d 8 80 05 1A 57 9F 54 00 0A
  80.252320 1  6C6             Rx   d 2 C0 00
  80.306960 1  63C             Rx   d 3 3B CF 05
  80.382170 1  6C6             Rx   d 8 80 05 1A 57 9F 5E 00 0A
  80.430920 1  6C6             Rx   d 2 C0 00
  80.542220 1  6C6             Rx   d 7 90 03 1A 53 00 0F 05
  80.591160 1  6C6             Rx   d 8 80 05 1A 57 9F 68 00 0A
  80.640740 1  6C6             Rx   d 2 C0 00
  80.687230 1  55B             Rx   d 1 01
  81.317400 1  63C             Rx   d 8 80 08 3B D0 1E C0 23 00
  81.327320 1  63C             Rx   d 5 C0 60 00 00 00
  81.686700 1  55B             Rx   d 1 01
  82.311910 1  6C6             Rx   d 8 80 05 1A 5D 84 00 00 05
  82.317370 1  63C             Rx   d 8 90 07 3B D1 05 41 75 78
  82.327180 1  63C             Rx   d 4 D0 49 6E 20
  82.361710 1  6C6             Rx   d 2 C0 00
  82.687520 1  55B             Rx   d 1 01
  83.307110 1  63C             Rx   d 3 3B D4 FF
  83.686460 1  55B             Rx   d 1 01
  84.307000 1  63C             Rx   d 3 3B D5 01
  84.686470 1  55B             Rx   d 1 01
  85.307070 1  63C             Rx   d 3 3B D6 FF
  85.687650 1  55B             Rx   d 1 01
  86.317250 1  63C             Rx   d 6 3B D7 FF FF FF FF
  86.686460 1  55B             Rx   d 1 01
  87.317220 1  63C             Rx   d 6 3B D8 FF FF FF FF
  87.688530 1  55B             Rx   d 1 01
  88.316960 1  63C             Rx   d 3 3B DB FF
  88.375170 1  6C6             Rx   d 8 80 05 1A 5D 84 00 00 05
  88.424590 1  6C6             Rx   d 2 C0 00
  88.686450 1  55B             Rx   d 1 01
  89.316960 1  63C             Rx   d 3 3B DC FF
  89.686470 1  55B             Rx   d 1 01
  90.316940 1  63C             Rx   d 3 3B DD FF
  90.686460 1  55B             Rx   d 1 01
  91.316960 1  63C             Rx   d 3 3B E5 01
  91.686470 1  55B             Rx   d 1 01
  92.316940 1  63C             Rx   d 3 3B E6 00
  92.687440 1  55B             Rx   d 1 01
  93.317240 1  63C             Rx   d 6 3B E7 FF FF FF FF
  93.686740 1  55B             Rx   d 1 01
  94.318170 1  63C             Rx   d 8 3B C2 03 00 2F 00 03 04
  94.438800 1  6C6             Rx   d 8 80 05 1A 5D 84 00 00 05
  94.489990 1  6C6             Rx   d 2 C0 00
  94.686460 1  55B             Rx   d 1 01
  95.317380 1  63C             Rx   d 8 80 08 3B C3 38 03 CF FF
  95.337760 1  63C             Rx   d 5 C0 77 00 80 00
  95.686460 1  55B             Rx   d 1 01
  96.316940 1  63C             Rx   d 3 3B C4 0A
  96.686450 1  55B             Rx   d 1 01
  97.316930 1  63C             Rx   d 3 3B CE 01
  97.686450 1  55B             Rx   d 1 01
  98.317600 1  63C             Rx   d 3 3B CF 05
  98.686450 1  55B             Rx   d 1 01
  99.317380 1  63C             Rx   d 8 80 08 3B D0 1E C0 23 00
  99.337130 1  63C             Rx   d 5 C0 60 00 00 00
  99.687200 1  55B             Rx   d 1 01
 100.317360 1  63C             Rx   d 8 90 07 3B D1 05 41 75 78
 100.337020 1  63C             Rx   d 4 D0 49 6E 20
 100.501270 1  6C6             Rx   d 8 80 05 1A 5D 84 00 00 05
 100.550740 1  6C6             Rx   d 2 C0 00
 100.686460 1  55B             Rx   d 1 01
 101.316930 1  63C             Rx   d 3 3B D4 FF
 101.686460 1  55B             Rx   d 1 01
 102.316920 1  63C             Rx   d 3 3B D5 01
 102.686450 1  55B             Rx   d 1 01
 103.316950 1  63C             Rx   d 3 3B D6 FF
 103.686460 1  55B             Rx   d 1 01
 104.317240 1  63C             Rx   d 6 3B D7 FF FF FF FF
 104.686450 1  55B             Rx   d 1 01
 105.317210 1  63C             Rx   d 6 3B D8 FF FF FF FF
 105.686450 1  55B             Rx   d 1 01
 106.316950 1  63C             Rx   d 3 3B DB FF
 106.686450 1  55B             Rx   d 1 01
 107.317620 1  63C             Rx   d 3 3B DC FF
 107.686450 1  55B             Rx   d 1 01
 108.316930 1  63C             Rx   d 3 3B DD FF
 108.686450 1  55B             Rx   d 1 01
 109.316940 1  63C             Rx   d 3 3B E5 01
 109.686450 1  55B             Rx   d 1 01
 110.316930 1  63C             Rx   d 3 3B E6 00
 110.686460 1  55B             Rx   d 1 01
 111.317230 1  63C             Rx   d 6 3B E7 FF FF FF FF
 111.686450 1  55B             Rx   d 1 01
 112.317390 1  63C             Rx   d 8 3B C2 03 00 2F 00 03 04
 112.686450 1  55B             Rx   d 1 01
 113.317370 1  63C             Rx   d 8 80 08 3B C3 38 03 CF FF
 113.337120 1  63C             Rx   d 5 C0 77 00 80 00
 113.686440 1  55B             Rx   d 1 01
 114.316980 1  63C             Rx   d 3 3B C4 0A
 114.686450 1  55B             Rx   d 1 01
 115.316920 1  63C             Rx   d 3 3B CE 01
 115.686450 1  55B             Rx   d 1 01
 116.317590 1  63C             Rx   d 3 3B CF 05
 116.686450 1  55B             Rx   d 1 01
 117.317380 1  63C             Rx   d 8 80 08 3B D0 1E C0 23 00
 117.337130 1  63C             Rx   d 5 C0 60 00 00 00
 117.686450 1  55B             Rx   d 1 01
 118.317360 1  63C             Rx   d 8 90 07 3B D1 05 41 75 78
 118.337010 1  63C             Rx   d 4 D0 49 6E 20
 118.686450 1  55B             Rx   d 1 01
 119.316920 1  63C             Rx   d 3 3B D4 FF
 119.686440 1  55B             Rx   d 1 01
 120.316920 1  63C             Rx   d 3 3B D5 01
 120.686440 1  55B             Rx   d 1 01
 121.316930 1  63C             Rx   d 3 3B D6 FF
 121.686450 1  55B             Rx   d 1 01
 122.317220 1  63C             Rx   d 6 3B D7 FF FF FF FF
 122.686440 1  55B             Rx   d 1 01
 123.317200 1  63C             Rx   d 6 3B D8 FF FF FF FF
 123.686440 1  55B             Rx   d 1 01
 124.316950 1  63C             Rx   d 3 3B DB FF
 124.686450 1  55B             Rx   d 1 01
 125.317590 1  63C             Rx   d 3 3B DC FF
 125.604050 1  6C6             Rx   d 7 80 03 1A 52 00 00 05
 125.663940 1  6C6             Rx   d 7 90 03 1A 53 00 00 05
 125.686500 1  55B             Rx   d 1 01
 125.724030 1  6C6             Rx   d 7 80 03 1A 54 00 00 05
 126.316960 1  63C             Rx   d 3 3B DD FF
 126.686500 1  55B             Rx   d 1 01
 127.316970 1  63C             Rx   d 3 3B E5 01
 127.686500 1  55B             Rx   d 1 01
 128.316960 1  63C             Rx   d 3 3B E6 00
 128.686500 1  55B             Rx   d 1 01
 129.317250 1  63C             Rx   d 6 3B E7 FF FF FF FF
 129.686500 1  55B             Rx   d 1 01
 130.317420 1  63C             Rx   d 8 3B C2 03 00 2F 00 03 04
 130.686490 1  55B             Rx   d 1 01
 131.317400 1  63C             Rx   d 8 80 08 3B C3 38 03 CF FF
 131.337140 1  63C             Rx   d 5 C0 77 00 80 00
 131.686500 1  55B             Rx   d 1 01
 132.316950 1  63C             Rx   d 3 3B C4 0A
 132.686500 1  55B             Rx   d 1 01
 133.316960 1  63C             Rx   d 3 3B CE 01
 133.686500 1  55B             Rx   d 1 01
 134.317560 1  63C             Rx   d 3 3B CF 05
 134.686490 1  55B             Rx   d 1 01
 135.317400 1  63C             Rx   d 8 80 08 3B D0 1E C0 23 00
 135.337160 1  63C             Rx   d 5 C0 60 00 00 00
 135.686500 1  55B             Rx   d 1 01
 136.317390 1  63C             Rx   d 8 90 07 3B D1 05 41 75 78
 136.337040 1  63C             Rx   d 4 D0 49 6E 20
 136.686500 1  55B             Rx   d 1 01
 137.316950 1  63C             Rx   d 3 3B D4 FF
 137.686490 1  55B             Rx   d 1 01
 138.316940 1  63C             Rx   d 3 3B D5 01
 138.686490 1  55B             Rx   d 1 01
 139.316960 1  63C             Rx   d 3 3B D6 FF
 139.686490 1  55B             Rx   d 1 01
 140.317250 1  63C             Rx   d 6 3B D7 FF FF FF FF
 140.686500 1  55B             Rx   d 1 01
 141.317240 1  63C             Rx   d 6 3B D8 FF FF FF FF
 141.686480 1  55B             Rx   d 1 01
 142.316970 1  63C             Rx   d 3 3B DB FF
 142.686490 1  55B             Rx   d 1 01
 143.317570 1  63C             Rx   d 3 3B DC FF
 143.686490 1  55B             Rx   d 1 01
 144.316950 1  63C             Rx   d 3 3B DD FF
 144.686490 1  55B             Rx   d 1 01
 145.316960 1  63C             Rx   d 3 3B E5 01
 145.686480 1  55B             Rx   d 1 01
 146.316950 1  63C             Rx   d 3 3B E6 00
 146.686440 1  55B             Rx   d 1 01
 147.317240 1  63C             Rx   d 6 3B E7 FF FF FF FF
 147.686440 1  55B             Rx   d 1 01
 148.317400 1  63C             Rx   d 8 3B C2 03 00 2F 00 03 04
 148.686440 1  55B             Rx   d 1 01
 149.317390 1  63C             Rx   d 8 80 08 3B C3 38 03 CF FF
 149.337130 1  63C             Rx   d 5 C0 77 00 80 00
 149.686440 1  55B             Rx   d 1 01
 150.316950 1  63C             Rx   d 3 3B C4 0A
 150.686440 1  55B             Rx   d 1 01
 151.316950 1  63C             Rx   d 3 3B CE 01
 151.686440 1  55B             Rx   d 1 01
 152.317550 1  63C             Rx   d 3 3B CF 05
 152.686430 1  55B             Rx   d 1 01
 153.317400 1  63C             Rx   d 8 80 08 3B D0 1E C0 23 00
 153.337150 1  63C             Rx   d 5 C0 60 00 00 00
 153.686430 1  55B             Rx   d 1 01
 154.317370 1  63C             Rx   d 8 90 07 3B D1 05 41 75 78
 154.337030 1  63C             Rx   d 4 D0 49 6E 20
 154.686420 1  55B             Rx   d 1 01
 155.316940 1  63C             Rx   d 3 3B D4 FF
 155.686440 1  55B             Rx   d 1 01
 156.316920 1  63C             Rx   d 3 3B D5 01
 156.686440 1  55B             Rx   d 1 01
 157.316960 1  63C             Rx   d 3 3B D6 FF
 157.686420 1  55B             Rx   d 1 01
 158.317240 1  63C             Rx   d 6 3B D7 FF FF FF FF
 158.686430 1  55B             Rx   d 1 01
 159.317230 1  63C             Rx   d 6 3B D8 FF FF FF FF
 159.686430 1  55B             Rx   d 1 01
 160.316960 1  63C             Rx   d 3 3B DB FF
 160.686430 1  55B             Rx   d 1 01
 161.317570 1  63C             Rx   d 3 3B DC FF
 161.686430 1  55B             Rx   d 1 01
 162.316930 1  63C             Rx   d 3 3B DD FF
 162.686430 1  55B             Rx   d 1 01
 163.316940 1  63C             Rx   d 3 3B E5 01
 163.686420 1  55B             Rx   d 1 01
 164.316940 1  63C             Rx   d 3 3B E6 00
 164.686430 1  55B             Rx   d 1 01
 165.317240 1  63C             Rx   d 6 3B E7 FF FF FF FF
 165.686420 1  55B             Rx   d 1 01
 166.317400 1  63C             Rx   d 8 3B C2 03 00 2F 00 03 04
 166.686430 1  55B             Rx   d 1 01
 167.317370 1  63C             Rx   d 8 80 08 3B C3 38 03 CF FF
 167.337120 1  63C             Rx   d 5 C0 77 00 80 00
 167.686420 1  55B             Rx   d 1 01
 168.316940 1  63C             Rx   d 3 3B C4 0A
 168.686430 1  55B             Rx   d 1 01
 169.316940 1  63C             Rx   d 3 3B CE 01
 169.686440 1  55B             Rx   d 1 01
 170.317560 1  63C             Rx   d 3 3B CF 05
 170.686430 1  55B             Rx   d 1 01
 171.317390 1  63C             Rx   d 8 80 08 3B D0 1E C0 23 00
 171.337130 1  63C             Rx   d 5 C0 60 00 00 00
 171.686420 1  55B             Rx   d 1 01
 172.317360 1  63C             Rx   d 8 90 07 3B D1 05 41 75 78
 172.337030 1  63C             Rx   d 4 D0 49 6E 20
 172.686430 1  55B             Rx   d 1 01
 173.316940 1  63C             Rx   d 3 3B D4 FF
 173.686420 1  55B             Rx   d 1 01
 174.316920 1  63C             Rx   d 3 3B D5 01
 174.686430 1  55B             Rx   d 1 01
 175.316940 1  63C             Rx   d 3 3B D6 FF
 175.686420 1  55B             Rx   d 1 01
 176.317240 1  63C             Rx   d 6 3B D7 FF FF FF FF
 176.686430 1  55B             Rx   d 1 01
 177.317210 1  63C             Rx   d 6 3B D8 FF FF FF FF
 177.686420 1  55B             Rx   d 1 01
 178.316950 1  63C             Rx   d 3 3B DB FF
 178.686420 1  55B             Rx   d 1 01
 179.317560 1  63C             Rx   d 3 3B DC FF
 179.686410 1  55B             Rx   d 1 01
 180.316930 1  63C             Rx   d 3 3B DD FF
 180.686410 1  55B             Rx   d 1 01
 181.316940 1  63C             Rx   d 3 3B E5 01
 181.686420 1  55B             Rx   d 1 01
 182.316930 1  63C             Rx   d 3 3B E6 00
 182.686410 1  55B             Rx   d 1 01
 183.317230 1  63C             Rx   d 6 3B E7 FF FF FF FF
 183.686430 1  55B             Rx   d 1 01
 184.317490 1  63C             Rx   d 8 3B C2 03 00 2F 00 03 04
 184.686410 1  55B             Rx   d 1 01
 185.317470 1  63C             Rx   d 8 80 08 3B C3 38 03 CF FF
 185.327090 1  63C             Rx   d 5 C0 77 00 80 00
 185.686410 1  55B             Rx   d 1 01
 186.316930 1  63C             Rx   d 3 3B C4 0A
 186.686420 1  55B             Rx   d 1 01
 186.998960 1  6C6             Rx   d 4 40 00 01 0A
 187.006640 1  6C6             Rx   d 2 1B C2
 187.047320 1  63C             Rx   d 8 4B C2 03 00 2F 00 03 04
 187.066690 1  6C6             Rx   d 2 1B C3
 187.097240 1  63C             Rx   d 8 80 08 4B C3 38 03 CF FF
 187.107010 1  63C             Rx   d 5 C0 77 00 80 00
 187.126200 1  6C6             Rx   d 2 1B C1
 187.148760 1  63C             Rx   d 8 80 48 4B C1 03 00 2F 00
 187.177270 1  63C             Rx   d 8 C0 03 04 08 00 38 03 CF
 187.187340 1  63C             Rx   d 8 C1 FF 77 00 80 00 0A 01
 187.197340 1  63C             Rx   d 8 C2 05 08 00 1E C0 23 00
 187.207360 1  63C             Rx   d 8 C3 60 00 00 00 07 00 05
 187.217320 1  63C             Rx   d 8 C4 41 75 78 49 6E 20 FF
 187.227380 1  63C             Rx   d 8 C5 01 FF FF FF FF FF FF
 187.238060 1  63C             Rx   d 8 C6 FF FF FF FF FF FF 01
 187.247520 1  63C             Rx   d 8 C7 00 00 03 00 00 00 00
 187.257440 1  63C             Rx   d 8 C8 04 00 00 00 00 01 01
 187.277160 1  63C             Rx   d 6 C9 00 FF FF FF FF
 187.686360 1  55B             Rx   d 1 01
 188.137530 1  63C             Rx   d 3 3B CE 01
 188.295370 1  6C6             Rx   d 3 2B D5 01
 188.326770 1  63C             Rx   d 3 4B D5 01
 188.346590 1  6C6             Rx   d 3 2B E5 01
 188.386870 1  63C             Rx   d 3 4B E5 01
 188.396320 1  6C6             Rx   d 3 2B E6 00
 188.456880 1  63C             Rx   d 3 4B E6 00
 188.686410 1  55B             Rx   d 1 01
 189.005620 1  6C6             Rx   d 2 1A 42
 189.055610 1  6C6             Rx   d 2 1A 43
 189.105660 1  6C6             Rx   d 2 1A 41
 189.246960 1  6C6             Rx   d 7 80 03 1A 52 00 00 05
 189.296410 1  6C6             Rx   d 7 80 03 1A 54 00 00 05
 189.346980 1  6C6             Rx   d 7 90 03 1A 53 00 00 05
 189.446930 1  63C             Rx   d 3 3B CF 05
 189.686470 1  55B             Rx   d 1 01
 190.448000 1  63C             Rx   d 8 80 08 3B D0 1E C0 23 00
 190.457200 1  63C             Rx   d 5 C0 60 00 00 00
 190.686470 1  55B             Rx   d 1 01
 190.747060 1  6C6             Rx   d 8 80 05 1A 57 83 00 00 05
 190.797240 1  6C6             Rx   d 8 90 05 1A 5D 84 00 00 05
 190.847770 1  6C6             Rx   d 2 C0 00
 190.896390 1  6C6             Rx   d 2 D0 00
 191.457320 1  63C             Rx   d 8 90 07 3B D1 05 41 75 78
 191.467010 1  63C             Rx   d 4 D0 49 6E 20
 191.686580 1  55B             Rx   d 1 01
 192.447070 1  63C             Rx   d 3 3B D4 FF
 192.686470 1  55B             Rx   d 1 01
 193.447140 1  63C             Rx   d 3 3B D5 01
 193.686470 1  55B             Rx   d 1 01
 194.447100 1  63C             Rx   d 3 3B D6 FF
 194.686470 1  55B             Rx   d 1 01
 195.457200 1  63C             Rx   d 6 3B D7 FF FF FF FF
 195.686470 1  55B             Rx   d 1 01
 196.457690 1  63C             Rx   d 6 3B D8 FF FF FF FF
 196.686470 1  55B             Rx   d 1 01
 196.910120 1  6C6             Rx   d 8 90 05 1A 5D 84 00 00 05
 196.959610 1  6C6             Rx   d 2 D0 00
 197.447720 1  63C             Rx   d 3 3B DB FF
 197.686470 1  55B             Rx   d 1 01
 198.447120 1  63C             Rx   d 3 3B DC FF
 198.686460 1  55B             Rx   d 1 01
 199.456890 1  63C             Rx   d 3 3B DD FF
 199.686470 1  55B             Rx   d 1 01
 200.456910 1  63C             Rx   d 3 3B E5 01
 200.687430 1  55B             Rx   d 1 01
 201.255610 1  6C6             Rx   d 7 80 03 1A 52 00 00 05
 201.456890 1  63C             Rx   d 3 3B E6 00
 201.686470 1  55B             Rx   d 1 01
 202.002880 1  6C6             Rx   d 8 80 05 1A 57 83 00 00 05
 202.053060 1  6C6             Rx   d 2 C0 00
 202.457200 1  63C             Rx   d 6 3B E7 FF FF FF FF
 202.473240 1  6C6             Rx   d 7 80 03 1A 53 00 00 05
 202.522940 1  6C6             Rx   d 8 80 05 1A 57 93 04 00 05
 202.573040 1  6C6             Rx   d 2 C0 00
 202.686460 1  55B             Rx   d 1 01
 202.973560 1  6C6             Rx   d 8 90 05 1A 5D 84 00 00 05
 203.022930 1  6C6             Rx   d 2 D0 00
 203.103620 1  6C6             Rx   d 8 80 05 1A 57 93 09 00 05
 203.153290 1  6C6             Rx   d 7 90 03 1A 54 00 00 05
 203.207630 1  6C6             Rx   d 2 C0 00
 203.457360 1  63C             Rx   d 8 3B C2 03 00 2F 00 03 04
 203.584700 1  6C6             Rx   d 7 80 03 1A 52 00 05 05
 203.686460 1  55B             Rx   d 1 01
 203.795080 1  6C6             Rx   d 8 80 05 1A 57 9F 0E 00 0A
 203.844350 1  6C6             Rx   d 2 C0 00
 203.975040 1  6C6             Rx   d 8 80 05 1A 57 9F 18 00 0A
 204.023520 1  6C6             Rx   d 2 C0 00
 204.075000 1  6C6             Rx   d 7 80 03 1A 53 00 05 05
 204.153750 1  6C6             Rx   d 8 80 05 1A 57 9F 22 00 0A
 204.203450 1  6C6             Rx   d 2 C0 00
 204.334700 1  6C6             Rx   d 8 80 05 1A 57 9F 2C 00 0A
 204.384170 1  6C6             Rx   d 2 C0 00
 204.457480 1  63C             Rx   d 8 80 08 3B C3 38 03 CF FF
 204.477080 1  63C             Rx   d 5 C0 77 00 80 00
 204.514480 1  6C6             Rx   d 8 80 05 1A 57 9F 36 00 0A
 204.563960 1  6C6             Rx   d 2 C0 00
 204.686460 1  55B             Rx   d 1 01
 204.696260 1  6C6             Rx   d 8 80 05 1A 57 9F 40 00 0A
 204.744830 1  6C6             Rx   d 7 90 03 1A 54 00 05 05
 204.794610 1  6C6             Rx   d 2 C0 00
 204.924440 1  6C6             Rx   d 8 80 05 1A 57 9F 4A 00 0A
 204.974540 1  6C6             Rx   d 2 C0 00
 205.104570 1  6C6             Rx   d 8 80 05 1A 57 9F 54 00 0A
 205.154200 1  6C6             Rx   d 2 C0 00
 205.284690 1  6C6             Rx   d 8 80 05 1A 57 9F 5E 00 0A
 205.333950 1  6C6             Rx   d 2 C0 00
 205.384680 1  6C6             Rx   d 7 80 03 1A 53 00 0A 05
 205.456890 1  63C             Rx   d 3 3B C4 0A
 205.464870 1  6C6             Rx   d 8 80 05 1A 57 9F 68 00 0A
 205.514120 1  6C6             Rx   d 2 C0 00
 205.686460 1  55B             Rx   d 1 01
 205.926020 1  6C6             Rx   d 7 90 03 1A 54 00 0A 05
 206.456890 1  63C             Rx   d 3 3B CE 01
 206.565410 1  6C6             Rx   d 7 80 03 1A 53 00 0F 05
 206.685110 1  6C6             Rx   d 7 90 03 1A 54 00 0F 05
 206.686870 1  55B             Rx   d 1 01
 207.456880 1  63C             Rx   d 3 3B CF 05
 207.686460 1  55B             Rx   d 1 01
 208.457360 1  63C             Rx   d 8 80 08 3B D0 1E C0 23 00
 208.477080 1  63C             Rx   d 5 C0 60 00 00 00
 208.686460 1  55B             Rx   d 1 01
 209.036220 1  6C6             Rx   d 8 80 05 1A 5D 84 00 00 05
 209.086380 1  6C6             Rx   d 2 C0 00
 209.457960 1  63C             Rx   d 8 90 07 3B D1 05 41 75 78
 209.476980 1  63C             Rx   d 4 D0 49 6E 20
 209.686450 1  55B             Rx   d 1 01
 210.456880 1  63C             Rx   d 3 3B D4 FF
 210.686470 1  55B             Rx   d 1 01
 211.456880 1  63C             Rx   d 3 3B D5 01
 211.686460 1  55B             Rx   d 1 01
 212.456940 1  63C             Rx   d 3 3B D6 FF
 212.686700 1  55B             Rx   d 1 01
 213.448690 1  6C6             Rx   d 7 80 03 1A 52 00 00 05
 213.457190 1  63C             Rx   d 6 3B D7 FF FF FF FF
 213.686600 1  55B             Rx   d 1 01
 213.968840 1  6C6             Rx   d 7 80 03 1A 53 00 00 05
 214.457160 1  63C             Rx   d 6 3B D8 FF FF FF FF
 214.589060 1  6C6             Rx   d 7 90 03 1A 54 00 00 05
 214.686520 1  55B             Rx   d 1 01
 215.009590 1  6C6             Rx   d 7 80 03 1A 52 00 05 05
 215.099450 1  6C6             Rx   d 8 80 05 1A 5D 84 00 00 05
 215.149180 1  6C6             Rx   d 2 C0 00
 215.449760 1  6C6             Rx   d 7 80 03 1A 53 00 05 05
 215.456960 1  63C             Rx   d 3 3B DB FF
 215.686450 1  55B             Rx   d 1 01
 216.071050 1  6C6             Rx   d 7 90 03 1A 54 00 05 05
 216.456890 1  63C             Rx   d 3 3B DC FF
 216.670370 1  6C6             Rx   d 7 80 03 1A 53 00 0A 05
 216.686450 1  55B             Rx   d 1 01
 217.200600 1  6C6             Rx   d 7 90 03 1A 54 00 0A 05
 217.456880 1  63C             Rx   d 3 3B DD FF
 217.686450 1  55B             Rx   d 1 01
 217.820910 1  6C6             Rx   d 7 80 03 1A 53 00 0F 05
 217.921560 1  6C6             Rx   d 7 90 03 1A 54 00 0F 05
 218.456940 1  63C             Rx   d 3 3B E5 01
 218.686450 1  55B             Rx   d 1 01
 219.456880 1  63C             Rx   d 3 3B E6 00
 219.686450 1  55B             Rx   d 1 01
 220.457340 1  63C             Rx   d 6 3B E7 FF FF FF FF
 220.686450 1  55B             Rx   d 1 01
 221.457350 1  63C             Rx   d 8 3B C2 03 00 2F 00 03 04
 221.686440 1  55B             Rx   d 1 01
 222.457320 1  63C             Rx   d 8 80 08 3B C3 38 03 CF FF
 222.477160 1  63C             Rx   d 5 C0 77 00 80 00
 222.686560 1  55B             Rx   d 1 01
 223.456880 1  63C             Rx   d 3 3B C4 0A
 223.686450 1  55B             Rx   d 1 01
 224.456880 1  63C             Rx   d 3 3B CE 01
 224.686450 1  55B             Rx   d 1 01
 225.456880 1  63C             Rx   d 3 3B CF 05
 225.686450 1  55B             Rx   d 1 01
 226.457330 1  63C             Rx   d 8 80 08 3B D0 1E C0 23 00
 226.477080 1  63C             Rx   d 5 C0 60 00 00 00
 226.686450 1  55B             Rx   d 1 01
 227.457320 1  63C             Rx   d 8 90 07 3B D1 05 41 75 78
 227.476970 1  63C             Rx   d 4 D0 49 6E 20
 227.686450 1  55B             Rx   d 1 01
 228.456920 1  63C             Rx   d 3 3B D4 FF
 228.686440 1  55B             Rx   d 1 01
 229.456870 1  63C             Rx   d 3 3B D5 01
 229.686450 1  55B             Rx   d 1 01
 230.456880 1  63C             Rx   d 3 3B D6 FF
 230.686440 1  55B             Rx   d 1 01
 231.457200 1  63C             Rx   d 6 3B D7 FF FF FF FF
 231.686450 1  55B             Rx   d 1 01
 232.457200 1  63C             Rx   d 6 3B D8 FF FF FF FF
 232.686440 1  55B             Rx   d 1 01
 232.808930 1  6C6             Rx   d 7 80 03 1A 52 00 00 05
 232.868390 1  6C6             Rx   d 7 80 03 1A 53 00 00 05
 232.929690 1  6C6             Rx   d 7 90 03 1A 54 00 00 05
 233.456960 1  63C             Rx   d 3 3B DB FF
 233.686440 1  55B             Rx   d 1 01
 234.458190 1  63C             Rx   d 3 3B DC FF
 234.686460 1  55B             Rx   d 1 01
 235.458290 1  63C             Rx   d 3 3B DD FF
 235.686440 1  55B             Rx   d 1 01
 236.457100 1  63C             Rx   d 3 3B E5 01
 236.686480 1  55B             Rx   d 1 01
 237.457960 1  63C             Rx   d 3 3B E6 00
 237.687470 1  55B             Rx   d 1 01
 238.457350 1  63C             Rx   d 6 3B E7 FF FF FF FF
 238.687580 1  55B             Rx   d 1 01
 239.457340 1  63C             Rx   d 8 3B C2 03 00 2F 00 03 04
 239.686440 1  55B             Rx   d 1 01
 240.457310 1  63C             Rx   d 8 80 08 3B C3 38 03 CF FF
 240.477050 1  63C             Rx   d 5 C0 77 00 80 00
 240.686450 1  55B             Rx   d 1 01
 241.456900 1  63C             Rx   d 3 3B C4 0A
 241.686450 1  55B             Rx   d 1 01
 242.456870 1  63C             Rx   d 3 3B CE 01
 242.686440 1  55B             Rx   d 1 01
 243.456910 1  63C             Rx   d 3 3B CF 05
 243.686440 1  55B             Rx   d 1 01
 243.914300 1  6C6             Rx   d 7 80 03 1A 52 00 00 05
 244.457320 1  63C             Rx   d 8 80 08 3B D0 1E C0 23 00
 244.477070 1  63C             Rx   d 5 C0 60 00 00 00
 244.664910 1  6C6             Rx   d 8 80 05 1A 57 83 00 00 05
 244.687000 1  55B             Rx   d 1 01
 244.715570 1  6C6             Rx   d 2 C0 00
 245.295880 1  6C6             Rx   d 7 80 03 1A 53 00 00 05
 245.457320 1  63C             Rx   d 8 90 07 3B D1 05 41 75 78
 245.477760 1  63C             Rx   d 4 D0 49 6E 20
 245.687440 1  55B             Rx   d 1 01
 245.904900 1  6C6             Rx   d 7 90 03 1A 54 00 00 05
 245.955700 1  6C6             Rx   d 7 80 03 1A 53 00 00 05
 246.456900 1  63C             Rx   d 3 3B D4 FF
 246.515330 1  6C6             Rx   d 8 80 05 1A 57 93 04 00 05
 246.565720 1  6C6             Rx   d 7 90 03 1A 54 00 00 05
 246.614850 1  6C6             Rx   d 2 C0 00
 246.687230 1  55B             Rx   d 1 01
 247.165870 1  6C6             Rx   d 8 80 05 1A 57 93 09 00 05
 247.215680 1  6C6             Rx   d 7 90 03 1A 52 00 05 05
 247.265080 1  6C6             Rx   d 2 C0 00
 247.396350 1  6C6             Rx   d 7 80 03 1A 53 00 05 05
 247.456880 1  63C             Rx   d 3 3B D5 01
 247.686460 1  55B             Rx   d 1 01
 247.946140 1  6C6             Rx   d 8 80 05 1A 57 9F 0E 00 0A
 247.995750 1  6C6             Rx   d 2 C0 00
 248.086930 1  6C6             Rx   d 7 80 03 1A 53 00 0A 05
 248.136310 1  6C6             Rx   d 8 80 05 1A 57 9F 18 00 0A
 248.187800 1  6C6             Rx   d 2 C0 00
 248.246930 1  6C6             Rx   d 7 80 03 1A 54 00 05 05
 248.316240 1  6C6             Rx   d 8 80 05 1A 57 9F 22 00 0A
 248.365830 1  6C6             Rx   d 2 C0 00
 248.457870 1  63C             Rx   d 3 3B D6 FF
 248.497510 1  6C6             Rx   d 8 80 05 1A 57 9F 2C 00 0A
 248.546490 1  6C6             Rx   d 2 C0 00
 248.676850 1  6C6             Rx   d 8 80 05 1A 57 9F 36 00 0A
 248.686690 1  55B             Rx   d 1 01
 248.726050 1  6C6             Rx   d 2 C0 00
 248.836920 1  6C6             Rx   d 7 80 03 1A 53 00 00 05
 248.886540 1  6C6             Rx   d 8 80 05 1A 57 9F 40 00 0A
 248.936310 1  6C6             Rx   d 2 C0 00
 249.066810 1  6C6             Rx   d 8 80 05 1A 57 9F 4A 00 0A
 249.116190 1  6C6             Rx   d 2 C0 00
 249.249820 1  6C6             Rx   d 8 80 05 1A 57 9F 54 00 0A
 249.296270 1  6C6             Rx   d 2 C0 00
 249.427640 1  6C6             Rx   d 8 80 05 1A 57 9F 5E 00 0A
 249.457200 1  63C             Rx   d 6 3B D7 FF FF FF FF
 249.476760 1  6C6             Rx   d 7 90 03 1A 54 00 0A 05
 249.526310 1  6C6             Rx   d 2 C0 00
 249.658850 1  6C6             Rx   d 8 80 05 1A 57 9F 68 00 0A
 249.686470 1  55B             Rx   d 1 01
 249.707400 1  6C6             Rx   d 2 C0 00
 249.838440 1  6C6             Rx   d 8 80 05 1A 57 9F 72 00 0A
 249.887550 1  6C6             Rx   d 2 C0 00
 250.019300 1  6C6             Rx   d 8 80 05 1A 57 9F 7C 00 0A
 250.066830 1  6C6             Rx   d 2 C0 00
 250.197600 1  6C6             Rx   d 8 80 05 1A 57 9F 86 00 0A
 250.246960 1  6C6             Rx   d 2 C0 00
 250.377390 1  6C6             Rx   d 8 80 05 1A 57 9F 90 00 0A
 250.426800 1  6C6             Rx   d 2 C0 00
 250.457170 1  63C             Rx   d 6 3B D8 FF FF FF FF
 250.558410 1  6C6             Rx   d 8 80 05 1A 57 9F 9A 00 0A
 250.607950 1  6C6             Rx   d 2 C0 00
 250.687310 1  55B             Rx   d 1 01
 250.727600 1  6C6             Rx   d 8 80 05 1A 57 9F A4 00 0A
 250.776910 1  6C6             Rx   d 2 C0 00
 250.897660 1  6C6             Rx   d 8 80 05 1A 57 9F AE 00 0A
 250.947480 1  6C6             Rx   d 2 C0 00
 251.068110 1  6C6             Rx   d 8 80 05 1A 57 9F B8 00 0A
 251.117110 1  6C6             Rx   d 2 C0 00
 251.237910 1  6C6             Rx   d 8 80 05 1A 57 9F C2 00 0A
 251.287650 1  6C6             Rx   d 2 C0 00
 251.408140 1  6C6             Rx   d 8 80 05 1A 57 9F CC 00 0A
 251.456980 1  63C             Rx   d 3 3B DB FF
 251.457640 1  6C6             Rx   d 2 C0 00
 251.578240 1  6C6             Rx   d 8 80 05 1A 57 9F D6 00 0A
 251.627440 1  6C6             Rx   d 2 C0 00
 251.687020 1  55B             Rx   d 1 01
 252.456910 1  63C             Rx   d 3 3B DC FF
 252.686440 1  55B             Rx   d 1 01
 253.456900 1  63C             Rx   d 3 3B DD FF
 253.686760 1  55B             Rx   d 1 01
 254.457840 1  63C             Rx   d 3 3B E5 01
 254.686440 1  55B             Rx   d 1 01
 255.457990 1  63C             Rx   d 3 3B E6 00
 255.686660 1  55B             Rx   d 1 01
 256.457800 1  63C             Rx   d 6 3B E7 FF FF FF FF
 256.670740 1  6C6             Rx   d 7 80 03 1A 52 00 00 05
 256.688750 1  55B             Rx   d 1 01
 257.310820 1  6C6             Rx   d 7 80 03 1A 53 00 00 05
 257.457520 1  63C             Rx   d 8 3B C2 03 00 2F 00 03 04
 257.688190 1  55B             Rx   d 1 01
 257.911090 1  6C6             Rx   d 7 90 03 1A 54 00 00 05
 258.457510 1  63C             Rx   d 8 80 08 3B C3 38 03 CF FF
 258.477170 1  63C             Rx   d 5 C0 77 00 80 00
 258.511660 1  6C6             Rx   d 7 80 03 1A 52 00 05 05
 258.682570 1  6C6             Rx   d 7 80 03 1A 53 00 05 05
 258.686780 1  55B             Rx   d 1 01
 259.321790 1  6C6             Rx   d 7 90 03 1A 54 00 05 05
 259.456890 1  63C             Rx   d 3 3B C4 0A
 259.686930 1  55B             Rx   d 1 01
 259.902660 1  6C6             Rx   d 7 80 03 1A 53 00 0A 05
 260.052410 1  6C6             Rx   d 7 90 03 1A 54 00 0A 05
 260.456880 1  63C             Rx   d 3 3B CE 01
 260.686530 1  55B             Rx   d 1 01
 261.456950 1  63C             Rx   d 3 3B CF 05
 261.686980 1  55B             Rx   d 1 01
 262.457340 1  63C             Rx   d 8 80 08 3B D0 1E C0 23 00
 262.477050 1  63C             Rx   d 5 C0 60 00 00 00
 262.686970 1  55B             Rx   d 1 01
 263.457320 1  63C             Rx   d 8 90 07 3B D1 05 41 75 78
 263.476940 1  63C             Rx   d 4 D0 49 6E 20
 263.686500 1  55B             Rx   d 1 01
 263.894980 1  6C6             Rx   d 7 80 03 1A 52 00 00 05
 263.954240 1  6C6             Rx   d 7 80 03 1A 53 00 00 05
 264.015360 1  6C6             Rx   d 7 90 03 1A 54 00 00 05
 264.456920 1  63C             Rx   d 3 3B D4 FF
 264.686370 1  55B             Rx   d 1 01
 265.456920 1  63C             Rx   d 3 3B D5 01
 265.686380 1  55B             Rx   d 1 01
 266.456930 1  63C             Rx   d 3 3B D6 FF
 266.686370 1  55B             Rx   d 1 01
 267.457220 1  63C             Rx   d 6 3B D7 FF FF FF FF
 267.686370 1  55B             Rx   d 1 01
 268.457200 1  63C             Rx   d 6 3B D8 FF FF FF FF
 268.686370 1  55B             Rx   d 1 01
 269.456930 1  63C             Rx   d 3 3B DB FF
 269.686370 1  55B             Rx   d 1 01
 270.456930 1  63C             Rx   d 3 3B DC FF
 270.686370 1  55B             Rx   d 1 01
 271.456920 1  63C             Rx   d 3 3B DD FF
 271.686370 1  55B             Rx   d 1 01
 272.456930 1  63C             Rx   d 3 3B E5 01
 272.686370 1  55B             Rx   d 1 01
 273.457500 1  63C             Rx   d 3 3B E6 00
 273.686370 1  55B             Rx   d 1 01
 274.457240 1  63C             Rx   d 6 3B E7 FF FF FF FF
 274.686370 1  55B             Rx   d 1 01
 275.457540 1  63C             Rx   d 8 3B C2 03 00 2F 00 03 04
 275.686370 1  55B             Rx   d 1 01
 276.457390 1  63C             Rx   d 8 80 08 3B C3 38 03 CF FF
 276.477200 1  63C             Rx   d 5 C0 77 00 80 00
 276.687340 1  55B             Rx   d 1 01
 277.456920 1  63C             Rx   d 3 3B C4 0A
 277.686440 1  55B             Rx   d 1 01
 278.456910 1  63C             Rx   d 3 3B CE 01
 278.686440 1  55B             Rx   d 1 01
 279.456910 1  63C             Rx   d 3 3B CF 05
 279.686370 1  55B             Rx   d 1 01
 280.457370 1  63C             Rx   d 8 80 08 3B D0 1E C0 23 00
 280.477210 1  63C             Rx   d 5 C0 60 00 00 00
 280.686370 1  55B             Rx   d 1 01
 281.457370 1  63C             Rx   d 8 90 07 3B D1 05 41 75 78
 281.477100 1  63C             Rx   d 4 D0 49 6E 20
 281.686360 1  55B             Rx   d 1 01
 282.456910 1  63C             Rx   d 3 3B D4 FF
 282.686360 1  55B             Rx   d 1 01
 283.456910 1  63C             Rx   d 3 3B D5 01
 283.686370 1  55B             Rx   d 1 01
 284.456920 1  63C             Rx   d 3 3B D6 FF
 284.686370 1  55B             Rx   d 1 01
 285.457210 1  63C             Rx   d 6 3B D7 FF FF FF FF
 285.686360 1  55B             Rx   d 1 01
 286.457800 1  63C             Rx   d 6 3B D8 FF FF FF FF
 286.686370 1  55B             Rx   d 1 01
 287.456930 1  63C             Rx   d 3 3B DB FF
 287.686360 1  55B             Rx   d 1 01
 288.456920 1  63C             Rx   d 3 3B DC FF
 288.686360 1  55B             Rx   d 1 01
 289.456910 1  63C             Rx   d 3 3B DD FF
 289.686360 1  55B             Rx   d 1 01
 290.456920 1  63C             Rx   d 3 3B E5 01
 290.686360 1  55B             Rx   d 1 01
 291.456910 1  63C             Rx   d 3 3B E6 00
 291.686360 1  55B             Rx   d 1 01
 292.458050 1  63C             Rx   d 6 3B E7 FF FF FF FF
 292.686360 1  55B             Rx   d 1 01
 293.457760 1  63C             Rx   d 8 3B C2 03 00 2F 00 03 04
 293.686370 1  55B             Rx   d 1 01
 294.457900 1  63C             Rx   d 8 80 08 3B C3 38 03 CF FF
 294.467040 1  63C             Rx   d 5 C0 77 00 80 00
 294.686360 1  55B             Rx   d 1 01
 295.456900 1  63C             Rx   d 3 3B C4 0A
 295.687330 1  55B             Rx   d 1 01
 296.456920 1  63C             Rx   d 3 3B CE 01
 296.686440 1  55B             Rx   d 1 01
 297.456900 1  63C             Rx   d 3 3B CF 05
 297.686440 1  55B             Rx   d 1 01
 298.457480 1  63C             Rx   d 8 80 08 3B D0 1E C0 23 00
 298.467080 1  63C             Rx   d 5 C0 60 00 00 00
 298.686360 1  55B             Rx   d 1 01
 299.457460 1  63C             Rx   d 8 90 07 3B D1 05 41 75 78
 299.466940 1  63C             Rx   d 4 D0 49 6E 20
 299.686360 1  55B             Rx   d 1 01
 300.456910 1  63C             Rx   d 3 3B D4 FF
 300.686420 1  55B             Rx   d 1 01
 301.456890 1  63C             Rx   d 3 3B D5 01
 301.686360 1  55B             Rx   d 1 01
 302.456960 1  63C             Rx   d 3 3B D6 FF
 302.686360 1  55B             Rx   d 1 01
 303.457320 1  63C             Rx   d 6 3B D7 FF FF FF FF
 303.686360 1  55B             Rx   d 1 01
 304.457320 1  63C             Rx   d 6 3B D8 FF FF FF FF
 304.686360 1  55B             Rx   d 1 01
 305.457000 1  63C             Rx   d 3 3B DB FF
 305.686350 1  55B             Rx   d 1 01
 306.457000 1  63C             Rx   d 3 3B DC FF
 306.686360 1  55B             Rx   d 1 01
 307.457000 1  63C             Rx   d 3 3B DD FF
 307.686350 1  55B             Rx   d 1 01
 308.457020 1  63C             Rx   d 3 3B E5 01
 308.686360 1  55B             Rx   d 1 01
 309.457020 1  63C             Rx   d 3 3B E6 00
 309.686350 1  55B             Rx   d 1 01
 310.467140 1  63C             Rx   d 6 3B E7 FF FF FF FF
 310.686360 1  55B             Rx   d 1 01
 311.467300 1  63C             Rx   d 8 3B C2 03 00 2F 00 03 04
 311.686360 1  55B             Rx   d 1 01
 312.467280 1  63C             Rx   d 8 80 08 3B C3 38 03 CF FF
 312.487030 1  63C             Rx   d 5 C0 77 00 80 00
 312.686360 1  55B             Rx   d 1 01
 313.466840 1  63C             Rx   d 3 3B C4 0A
 313.686360 1  55B             Rx   d 1 01
 314.466840 1  63C             Rx   d 3 3B CE 01
 314.687320 1  55B             Rx   d 1 01
 315.466830 1  63C             Rx   d 3 3B CF 05
 315.686660 1  55B             Rx   d 1 01
 316.467280 1  63C             Rx   d 8 80 08 3B D0 1E C0 23 00
 316.487040 1  63C             Rx   d 5 C0 60 00 00 00
 316.686510 1  55B             Rx   d 1 01
 317.467280 1  63C             Rx   d 8 90 07 3B D1 05 41 75 78
 317.486920 1  63C             Rx   d 4 D0 49 6E 20
 317.686350 1  55B             Rx   d 1 01
 318.466840 1  63C             Rx   d 3 3B D4 FF
 318.686350 1  55B             Rx   d 1 01
 319.466820 1  63C             Rx   d 3 3B D5 01
 319.686350 1  55B             Rx   d 1 01
 320.466840 1  63C             Rx   d 3 3B D6 FF
 320.686350 1  55B             Rx   d 1 01
 321.467130 1  63C             Rx   d 6 3B D7 FF FF FF FF
 321.686350 1  55B             Rx   d 1 01
 322.467120 1  63C             Rx   d 6 3B D8 FF FF FF FF
 322.686350 1  55B             Rx   d 1 01
 323.466850 1  63C             Rx   d 3 3B DB FF
 323.686350 1  55B             Rx   d 1 01
 324.466840 1  63C             Rx   d 3 3B DC FF
 324.686350 1  55B             Rx   d 1 01
 325.466840 1  63C             Rx   d 3 3B DD FF
 325.686350 1  55B             Rx   d 1 01
 326.467480 1  63C             Rx   d 3 3B E5 01
 326.686340 1  55B             Rx   d 1 01
 327.467210 1  63C             Rx   d 3 3B E6 00
 327.686350 1  55B             Rx   d 1 01
 328.467210 1  63C             Rx   d 6 3B E7 FF FF FF FF
 328.686340 1  55B             Rx   d 1 01
 329.467300 1  63C             Rx   d 8 3B C2 03 00 2F 00 03 04
 329.686340 1  55B             Rx   d 1 01
 330.467270 1  63C             Rx   d 8 80 08 3B C3 38 03 CF FF
 330.487020 1  63C             Rx   d 5 C0 77 00 80 00
 330.686340 1  55B             Rx   d 1 01
 331.466830 1  63C             Rx   d 3 3B C4 0A
 331.686350 1  55B             Rx   d 1 01
 332.466840 1  63C             Rx   d 3 3B CE 01
 332.686350 1  55B             Rx   d 1 01
 333.466820 1  63C             Rx   d 3 3B CF 05
 333.687310 1  55B             Rx   d 1 01
 334.467280 1  63C             Rx   d 8 80 08 3B D0 1E C0 23 00
 334.487030 1  63C             Rx   d 5 C0 60 00 00 00
 334.687290 1  55B             Rx   d 1 01
 335.467260 1  63C             Rx   d 8 90 07 3B D1 05 41 75 78
 335.486920 1  63C             Rx   d 4 D0 49 6E 20
 335.686920 1  55B             Rx   d 1 01
 336.466840 1  63C             Rx   d 3 3B D4 FF
 336.686350 1  55B             Rx   d 1 01
 337.466820 1  63C             Rx   d 3 3B D5 01
 337.686330 1  55B             Rx   d 1 01
 338.466840 1  63C             Rx   d 3 3B D6 FF
 338.686350 1  55B             Rx   d 1 01
 339.467120 1  63C             Rx   d 6 3B D7 FF FF FF FF
 339.686340 1  55B             Rx   d 1 01
 340.467110 1  63C             Rx   d 6 3B D8 FF FF FF FF
 340.686350 1  55B             Rx   d 1 01
 341.466840 1  63C             Rx   d 3 3B DB FF
 341.686340 1  55B             Rx   d 1 01
 342.466840 1  63C             Rx   d 3 3B DC FF
 342.686340 1  55B             Rx   d 1 01
 343.466830 1  63C             Rx   d 3 3B DD FF
 343.686340 1  55B             Rx   d 1 01
 344.466840 1  63C             Rx   d 3 3B E5 01
 344.686340 1  55B             Rx   d 1 01
 345.467470 1  63C             Rx   d 3 3B E6 00
 345.686330 1  55B             Rx   d 1 01
 346.468160 1  63C             Rx   d 6 3B E7 FF FF FF FF
 346.686330 1  55B             Rx   d 1 01
 347.467770 1  63C             Rx   d 8 3B C2 03 00 2F 00 03 04
 347.686340 1  55B             Rx   d 1 01
 348.467270 1  63C             Rx   d 8 80 08 3B C3 38 03 CF FF
 348.487020 1  63C             Rx   d 5 C0 77 00 80 00
 348.686340 1  55B             Rx   d 1 01
 349.466820 1  63C             Rx   d 3 3B C4 0A
 349.686330 1  55B             Rx   d 1 01
 350.466820 1  63C             Rx   d 3 3B CE 01
 350.686340 1  55B             Rx   d 1 01
 351.466810 1  63C             Rx   d 3 3B CF 05
 351.686330 1  55B             Rx   d 1 01
 352.467280 1  63C             Rx   d 8 80 08 3B D0 1E C0 23 00
 352.487030 1  63C             Rx   d 5 C0 60 00 00 00
 352.687300 1  55B             Rx   d 1 01
 353.467260 1  63C             Rx   d 8 90 07 3B D1 05 41 75 78
 353.486910 1  63C             Rx   d 4 D0 49 6E 20
 353.686330 1  55B             Rx   d 1 01
 354.466820 1  63C             Rx   d 3 3B D4 FF
 354.687300 1  55B             Rx   d 1 01
 355.466800 1  63C             Rx   d 3 3B D5 01
 355.686330 1  55B             Rx   d 1 01
 356.466830 1  63C             Rx   d 3 3B D6 FF
 356.686330 1  55B             Rx   d 1 01
 357.467120 1  63C             Rx   d 6 3B D7 FF FF FF FF
 357.686340 1  55B             Rx   d 1 01
 358.467090 1  63C             Rx   d 6 3B D8 FF FF FF FF
 358.686330 1  55B             Rx   d 1 01
 359.466840 1  63C             Rx   d 3 3B DB FF
 359.686330 1  55B             Rx   d 1 01
 360.466830 1  63C             Rx   d 3 3B DC FF
 360.686320 1  55B             Rx   d 1 01
 361.466810 1  63C             Rx   d 3 3B DD FF
 361.686330 1  55B             Rx   d 1 01
 362.466820 1  63C             Rx   d 3 3B E5 01
 362.686330 1  55B             Rx   d 1 01
 363.466810 1  63C             Rx   d 3 3B E6 00
 363.686330 1  55B             Rx   d 1 01
 364.467750 1  63C             Rx   d 6 3B E7 FF FF FF FF
 364.686330 1  55B             Rx   d 1 01
 365.467280 1  63C             Rx   d 8 3B C2 03 00 2F 00 03 04
 365.686320 1  55B             Rx   d 1 01
 366.468150 1  63C             Rx   d 8 80 08 3B C3 38 03 CF FF
 366.487000 1  63C             Rx   d 5 C0 77 00 80 00
 366.686330 1  55B             Rx   d 1 01
 367.466820 1  63C             Rx   d 3 3B C4 0A
 367.686320 1  55B             Rx   d 1 01
 368.466810 1  63C             Rx   d 3 3B CE 01
 368.686330 1  55B             Rx   d 1 01
 369.466900 1  63C             Rx   d 3 3B CF 05
 369.687290 1  55B             Rx   d 1 01
 370.467260 1  63C             Rx   d 8 80 08 3B D0 1E C0 23 00
 370.487010 1  63C             Rx   d 5 C0 60 00 00 00
 370.686320 1  55B             Rx   d 1 01
 371.467240 1  63C             Rx   d 8 90 07 3B D1 05 41 75 78
 371.487550 1  63C             Rx   d 4 D0 49 6E 20
 371.686320 1  55B             Rx   d 1 01
 372.466810 1  63C             Rx   d 3 3B D4 FF
 372.686330 1  55B             Rx   d 1 01
 373.466800 1  63C             Rx   d 3 3B D5 01
 373.686400 1  55B             Rx   d 1 01
 374.466830 1  63C             Rx   d 3 3B D6 FF
 374.687290 1  55B             Rx   d 1 01
 375.467110 1  63C             Rx   d 6 3B D7 FF FF FF FF
 375.686320 1  55B             Rx   d 1 01
 376.467090 1  63C             Rx   d 6 3B D8 FF FF FF FF
 376.686320 1  55B             Rx   d 1 01
 377.466830 1  63C             Rx   d 3 3B DB FF
 377.686330 1  55B             Rx   d 1 01
 378.466820 1  63C             Rx   d 3 3B DC FF
 378.686320 1  55B             Rx   d 1 01
 379.466800 1  63C             Rx   d 3 3B DD FF
 379.686320 1  55B             Rx   d 1 01
 380.466820 1  63C             Rx   d 3 3B E5 01
 380.686320 1  55B             Rx   d 1 01
 381.466800 1  63C             Rx   d 3 3B E6 00
 381.686320 1  55B             Rx   d 1 01
 382.467110 1  63C             Rx   d 6 3B E7 FF FF FF FF
 382.686320 1  55B             Rx   d 1 01
 383.467270 1  63C             Rx   d 8 3B C2 03 00 2F 00 03 04
 383.686320 1  55B             Rx   d 1 01
 384.467250 1  63C             Rx   d 8 80 08 3B C3 38 03 CF FF
 384.486990 1  63C             Rx   d 5 C0 77 00 80 00
 384.686320 1  55B             Rx   d 1 01
 385.466800 1  63C             Rx   d 3 3B C4 0A
 385.686320 1  55B             Rx   d 1 01
 386.466800 1  63C             Rx   d 3 3B CE 01
 386.686320 1  55B             Rx   d 1 01
 387.466790 1  63C             Rx   d 3 3B CF 05
 387.686310 1  55B             Rx   d 1 01
 388.467250 1  63C             Rx   d 8 80 08 3B D0 1E C0 23 00
 388.487000 1  63C             Rx   d 5 C0 60 00 00 00
 388.686320 1  55B             Rx   d 1 01
 389.467240 1  63C             Rx   d 8 90 07 3B D1 05 41 75 78
 389.486900 1  63C             Rx   d 4 D0 49 6E 20
 389.686310 1  55B             Rx   d 1 01
 390.466800 1  63C             Rx   d 3 3B D4 FF
 390.686320 1  55B             Rx   d 1 01
 391.466840 1  63C             Rx   d 3 3B D5 01
 391.686310 1  55B             Rx   d 1 01
 392.466810 1  63C             Rx   d 3 3B D6 FF
 392.686310 1  55B             Rx   d 1 01
 393.467770 1  63C             Rx   d 6 3B D7 FF FF FF FF
 393.686310 1  55B             Rx   d 1 01
 394.467720 1  63C             Rx   d 6 3B D8 FF FF FF FF
 394.686320 1  55B             Rx   d 1 01
 395.466820 1  63C             Rx   d 3 3B DB FF
 395.686320 1  55B             Rx   d 1 01
 396.466810 1  63C             Rx   d 3 3B DC FF
 396.686310 1  55B             Rx   d 1 01
 397.466800 1  63C             Rx   d 3 3B DD FF
 397.686310 1  55B             Rx   d 1 01
 398.466810 1  63C             Rx   d 3 3B E5 01
 398.686320 1  55B             Rx   d 1 01
 399.466800 1  63C             Rx   d 3 3B E6 00
 399.686310 1  55B             Rx   d 1 01
 400.467100 1  63C             Rx   d 6 3B E7 FF FF FF FF
 400.686310 1  55B             Rx   d 1 01
 401.467250 1  63C             Rx   d 8 3B C2 03 00 2F 00 03 04
 401.687280 1  55B             Rx   d 1 01
 402.467240 1  63C             Rx   d 8 80 08 3B C3 38 03 CF FF
 402.477010 1  63C             Rx   d 5 C0 77 00 80 00
 402.686310 1  55B             Rx   d 1 01
 403.466800 1  63C             Rx   d 3 3B C4 0A
 403.686300 1  55B             Rx   d 1 01
 404.466790 1  63C             Rx   d 3 3B CE 01
 404.686320 1  55B             Rx   d 1 01
 405.466780 1  63C             Rx   d 3 3B CF 05
 405.686310 1  55B             Rx   d 1 01
 406.467280 1  63C             Rx   d 8 80 08 3B D0 1E C0 23 00
 406.477010 1  63C             Rx   d 5 C0 60 00 00 00
 406.686300 1  55B             Rx   d 1 01
 407.467280 1  63C             Rx   d 8 90 07 3B D1 05 41 75 78
 407.476910 1  63C             Rx   d 4 D0 49 6E 20
 407.686300 1  55B             Rx   d 1 01
 408.466790 1  63C             Rx   d 3 3B D4 FF
 408.686310 1  55B             Rx   d 1 01
 409.466780 1  63C             Rx   d 3 3B D5 01
 409.686310 1  55B             Rx   d 1 01
 410.466800 1  63C             Rx   d 3 3B D6 FF
 410.686300 1  55B             Rx   d 1 01
 411.467140 1  63C             Rx   d 6 3B D7 FF FF FF FF
 411.686300 1  55B             Rx   d 1 01
 412.467120 1  63C             Rx   d 6 3B D8 FF FF FF FF
 412.686300 1  55B             Rx   d 1 01
 413.467450 1  63C             Rx   d 3 3B DB FF
 413.686300 1  55B             Rx   d 1 01
 414.466800 1  63C             Rx   d 3 3B DC FF
 414.686300 1  55B             Rx   d 1 01
 415.466830 1  63C             Rx   d 3 3B DD FF
 415.686300 1  55B             Rx   d 1 01
 416.466840 1  63C             Rx   d 3 3B E5 01
 416.686300 1  55B             Rx   d 1 01
 417.466840 1  63C             Rx   d 3 3B E6 00
 417.686300 1  55B             Rx   d 1 01
 418.467230 1  63C             Rx   d 6 3B E7 FF FF FF FF
 418.686300 1  55B             Rx   d 1 01
 419.477280 1  63C             Rx   d 8 3B C2 03 00 2F 00 03 04
 419.686300 1  55B             Rx   d 1 01
 420.477250 1  63C             Rx   d 8 80 08 3B C3 38 03 CF FF
 420.487120 1  63C             Rx   d 5 C0 77 00 80 00
 420.687270 1  55B             Rx   d 1 01
 421.466910 1  63C             Rx   d 3 3B C4 0A
 421.686310 1  55B             Rx   d 1 01
 422.466900 1  63C             Rx   d 3 3B CE 01
 422.686300 1  55B             Rx   d 1 01
 423.466910 1  63C             Rx   d 3 3B CF 05
 423.686310 1  55B             Rx   d 1 01
 424.477270 1  63C             Rx   d 8 80 08 3B D0 1E C0 23 00
 424.497000 1  63C             Rx   d 5 C0 60 00 00 00
 424.686300 1  55B             Rx   d 1 01
 425.477240 1  63C             Rx   d 8 90 07 3B D1 05 41 75 78
 425.496900 1  63C             Rx   d 4 D0 49 6E 20
 425.686290 1  55B             Rx   d 1 01
 426.476800 1  63C             Rx   d 3 3B D4 FF
 426.686290 1  55B             Rx   d 1 01
 427.476800 1  63C             Rx   d 3 3B D5 01
 427.686290 1  55B             Rx   d 1 01
 428.477430 1  63C             Rx   d 3 3B D6 FF
 428.686290 1  55B             Rx   d 1 01
 429.477110 1  63C             Rx   d 6 3B D7 FF FF FF FF
 429.686290 1  55B             Rx   d 1 01
 430.477080 1  63C             Rx   d 6 3B D8 FF FF FF FF
 430.686290 1  55B             Rx   d 1 01
 431.476820 1  63C             Rx   d 3 3B DB FF
 431.686290 1  55B             Rx   d 1 01
 432.476820 1  63C             Rx   d 3 3B DC FF
 432.686290 1  55B             Rx   d 1 01
 433.476800 1  63C             Rx   d 3 3B DD FF
 433.686280 1  55B             Rx   d 1 01
 434.476810 1  63C             Rx   d 3 3B E5 01
 434.686290 1  55B             Rx   d 1 01
 435.476800 1  63C             Rx   d 3 3B E6 00
 435.686290 1  55B             Rx   d 1 01
 436.477110 1  63C             Rx   d 6 3B E7 FF FF FF FF
 436.686290 1  55B             Rx   d 1 01
 437.477260 1  63C             Rx   d 8 3B C2 03 00 2F 00 03 04
 437.686290 1  55B             Rx   d 1 01
 438.477240 1  63C             Rx   d 8 80 08 3B C3 38 03 CF FF
 438.497610 1  63C             Rx   d 5 C0 77 00 80 00
 438.686280 1  55B             Rx   d 1 01
 439.476800 1  63C             Rx   d 3 3B C4 0A
 439.686290 1  55B             Rx   d 1 01
 440.477430 1  63C             Rx   d 3 3B CE 01
 440.686280 1  55B             Rx   d 1 01
 441.476790 1  63C             Rx   d 3 3B CF 05
 441.686290 1  55B             Rx   d 1 01
 442.477250 1  63C             Rx   d 8 80 08 3B D0 1E C0 23 00
 442.497000 1  63C             Rx   d 5 C0 60 00 00 00
 442.686290 1  55B             Rx   d 1 01
 443.477230 1  63C             Rx   d 8 90 07 3B D1 05 41 75 78
 443.496890 1  63C             Rx   d 4 D0 49 6E 20
 443.686290 1  55B             Rx   d 1 01
 444.476800 1  63C             Rx   d 3 3B D4 FF
 444.686290 1  55B             Rx   d 1 01
 445.476790 1  63C             Rx   d 3 3B D5 01
 445.686290 1  55B             Rx   d 1 01
 446.476800 1  63C             Rx   d 3 3B D6 FF
 446.686290 1  55B             Rx   d 1 01
 447.477100 1  63C             Rx   d 6 3B D7 FF FF FF FF
 447.687250 1  55B             Rx   d 1 01
 448.477080 1  63C             Rx   d 6 3B D8 FF FF FF FF
 448.686280 1  55B             Rx   d 1 01
 449.476810 1  63C             Rx   d 3 3B DB FF
 449.686280 1  55B             Rx   d 1 01
 450.476810 1  63C             Rx   d 3 3B DC FF
 450.686280 1  55B             Rx   d 1 01
 451.476800 1  63C             Rx   d 3 3B DD FF
 451.686280 1  55B             Rx   d 1 01
 452.476800 1  63C             Rx   d 3 3B E5 01
 452.686280 1  55B             Rx   d 1 01
 453.476790 1  63C             Rx   d 3 3B E6 00
 453.686280 1  55B             Rx   d 1 01
 454.477090 1  63C             Rx   d 6 3B E7 FF FF FF FF
 454.686280 1  55B             Rx   d 1 01
 455.477250 1  63C             Rx   d 8 3B C2 03 00 2F 00 03 04
 455.686280 1  55B             Rx   d 1 01
 456.477230 1  63C             Rx   d 8 80 08 3B C3 38 03 CF FF
 456.496990 1  63C             Rx   d 5 C0 77 00 80 00
 456.687240 1  55B             Rx   d 1 01
 457.476800 1  63C             Rx   d 3 3B C4 0A
 457.686280 1  55B             Rx   d 1 01
 458.476790 1  63C             Rx   d 3 3B CE 01
 458.686270 1  55B             Rx   d 1 01
 459.476780 1  63C             Rx   d 3 3B CF 05
 459.686280 1  55B             Rx   d 1 01
 460.477240 1  63C             Rx   d 8 80 08 3B D0 1E C0 23 00
 460.496990 1  63C             Rx   d 5 C0 60 00 00 00
 460.686280 1  55B             Rx   d 1 01
 461.477220 1  63C             Rx   d 8 90 07 3B D1 05 41 75 78
 461.496880 1  63C             Rx   d 4 D0 49 6E 20
 461.686280 1  55B             Rx   d 1 01
 462.476800 1  63C             Rx   d 3 3B D4 FF
 462.686280 1  55B             Rx   d 1 01
 463.476770 1  63C             Rx   d 3 3B D5 01
 463.686270 1  55B             Rx   d 1 01
 464.476800 1  63C             Rx   d 3 3B D6 FF
 464.686280 1  55B             Rx   d 1 01
 465.477090 1  63C             Rx   d 6 3B D7 FF FF FF FF
 465.687240 1  55B             Rx   d 1 01
 466.477070 1  63C             Rx   d 6 3B D8 FF FF FF FF
 466.686280 1  55B             Rx   d 1 01
 467.476810 1  63C             Rx   d 3 3B DB FF
 467.686270 1  55B             Rx   d 1 01
 468.476800 1  63C             Rx   d 3 3B DC FF
 468.686280 1  55B             Rx   d 1 01
 469.476790 1  63C             Rx   d 3 3B DD FF
 469.686280 1  55B             Rx   d 1 01
 470.476800 1  63C             Rx   d 3 3B E5 01
 470.686280 1  55B             Rx   d 1 01
 471.476790 1  63C             Rx   d 3 3B E6 00
 471.686280 1  55B             Rx   d 1 01
 472.477090 1  63C             Rx   d 6 3B E7 FF FF FF FF
 472.686270 1  55B             Rx   d 1 01
 473.477240 1  63C             Rx   d 8 3B C2 03 00 2F 00 03 04
 473.686280 1  55B             Rx   d 1 01
 474.477230 1  63C             Rx   d 8 80 08 3B C3 38 03 CF FF
 474.496980 1  63C             Rx   d 5 C0 77 00 80 00
 474.687240 1  55B             Rx   d 1 01
 475.476780 1  63C             Rx   d 3 3B C4 0A
 475.686280 1  55B             Rx   d 1 01
 476.476780 1  63C             Rx   d 3 3B CE 01
 476.686270 1  55B             Rx   d 1 01
 477.476770 1  63C             Rx   d 3 3B CF 05
 477.686270 1  55B             Rx   d 1 01
 495.849120 1  55B             Rx   d 1 01
 496.192360 1  6C6             Rx   d 4 40 00 01 0A
 496.709640 1  6C6             Rx   d 2 1B C2
 496.847230 1  55B             Rx   d 1 01
 497.309600 1  6C6             Rx   d 2 1B C2
 497.847230 1  55B             Rx   d 1 01
 497.909390 1  6C6             Rx   d 2 1B C2
 498.199400 1  6C6             Rx   d 2 1A 42
 498.249320 1  6C6             Rx   d 2 1A 43
 498.299820 1  6C6             Rx   d 2 1A 41
 498.430010 1  6C6             Rx   d 7 80 03 1A 52 00 00 05
 498.479880 1  6C6             Rx   d 7 90 03 1A 54 00 00 05
 498.510070 1  6C6             Rx   d 2 1B C2
 498.530130 1  6C6             Rx   d 7 80 03 1A 53 00 00 05
 498.847240 1  55B             Rx   d 1 01
 499.110290 1  6C6             Rx   d 2 1B C2
 499.118600 1  63C             Rx   d 8 0B C2 03 00 2F 00 03 04
 499.140060 1  6C6             Rx   d 2 1B C3
 499.740290 1  6C6             Rx   d 2 1B C3
 499.847220 1  55B             Rx   d 1 01
 499.930670 1  6C6             Rx   d 8 80 05 1A 57 83 00 00 05
 499.981570 1  6C6             Rx   d 8 90 05 1A 5D 84 00 00 05
 500.031550 1  6C6             Rx   d 2 C0 00
 500.080120 1  6C6             Rx   d 2 D0 00
 500.108360 1  63C             Rx   d 8 3B C2 03 00 2F 00 03 04
 500.170040 1  63C             Rx   d 3 4B CF 01
 500.340840 1  6C6             Rx   d 2 1B C3
 500.362360 1  63C             Rx   d 8 80 08 4B C3 38 03 CF FF
 500.377910 1  63C             Rx   d 5 C0 77 00 80 00
 500.400640 1  6C6             Rx   d 2 1B C1
 500.418170 1  63C             Rx   d 8 80 43 4B C1 03 00 2F 00
 500.438130 1  63C             Rx   d 8 C0 03 04 08 00 38 03 CF
 500.460630 1  63C             Rx   d 8 C1 FF 77 00 80 00 0A 01
 500.478140 1  63C             Rx   d 8 C2 01 08 00 00 00 01 00
 500.499290 1  63C             Rx   d 8 C3 60 00 00 00 02 00 00
 500.518170 1  63C             Rx   d 8 C4 00 00 00 00 00 00 00
 500.538170 1  63C             Rx   d 8 C5 00 00 00 00 00 00 00
 500.561530 1  63C             Rx   d 8 C6 01 01 00 00 03 00 00
 500.578160 1  63C             Rx   d 8 C7 00 00 04 00 00 00 00
 500.598940 1  63C             Rx   d 8 C8 01 00 00 FF FF FF FF
 500.847230 1  55B             Rx   d 1 01
 501.418120 1  63C             Rx   d 8 80 08 3B C3 38 03 CF FF
 501.437880 1  63C             Rx   d 5 C0 77 00 80 00
 501.621130 1  6C6             Rx   d 3 2B D5 01
 501.671290 1  6C6             Rx   d 3 2B E5 01
 501.697760 1  63C             Rx   d 3 4B CF 05
 501.718200 1  63C             Rx   d 8 80 08 4B D0 1E C0 23 00
 501.721320 1  6C6             Rx   d 3 2B E6 00
 501.738180 1  63C             Rx   d 6 90 02 4B D1 00 00
 501.761080 1  63C             Rx   d 3 4B D4 FF
 501.777800 1  63C             Rx   d 3 4B D5 01
 501.797760 1  63C             Rx   d 3 4B D6 FF
 501.818060 1  63C             Rx   d 6 4B D7 FF FF FF FF
 501.838130 1  63C             Rx   d 6 4B D8 FF FF FF FF
 501.847280 1  55B             Rx   d 1 01
 501.860210 1  63C             Rx   d 3 4B DB FF
 501.877860 1  63C             Rx   d 3 4B DC FF
 501.897750 1  63C             Rx   d 3 4B DD FF
 501.917780 1  63C             Rx   d 3 4B E5 01
 501.937790 1  63C             Rx   d 3 4B E6 00
 501.961360 1  63C             Rx   d 6 4B E7 FF FF FF FF
 501.977990 1  63C             Rx   d 5 C0 60 00 00 00
 501.998170 1  63C             Rx   d 8 90 07 4B D1 05 41 75 78
 502.018510 1  63C             Rx   d 4 D0 49 6E 20
 502.737760 1  63C             Rx   d 3 3B C4 0A
 502.847290 1  55B             Rx   d 1 01
 503.737760 1  63C             Rx   d 3 3B CE 01
 503.847280 1  55B             Rx   d 1 01
 504.737750 1  63C             Rx   d 3 3B CF 05
 504.847280 1  55B             Rx   d 1 01
 505.738210 1  63C             Rx   d 8 80 08 3B D0 1E C0 23 00
 505.762430 1  63C             Rx   d 5 C0 60 00 00 00
 505.847280 1  55B             Rx   d 1 01
 506.738200 1  63C             Rx   d 8 90 07 3B D1 05 41 75 78
 506.761280 1  63C             Rx   d 4 D0 49 6E 20
 506.847280 1  55B             Rx   d 1 01
 507.737760 1  63C             Rx   d 3 3B D4 FF
 507.847280 1  55B             Rx   d 1 01
 508.737750 1  63C             Rx   d 3 3B D5 01
 508.847280 1  55B             Rx   d 1 01
 509.737760 1  63C             Rx   d 3 3B D6 FF
 509.847280 1  55B             Rx   d 1 01
 510.738050 1  63C             Rx   d 6 3B D7 FF FF FF FF
 510.847280 1  55B             Rx   d 1 01
 511.738040 1  63C             Rx   d 6 3B D8 FF FF FF FF
 511.847280 1  55B             Rx   d 1 01
 512.737780 1  63C             Rx   d 3 3B DB FF
 512.848240 1  55B             Rx   d 1 01
 513.737760 1  63C             Rx   d 3 3B DC FF
 513.847850 1  55B             Rx   d 1 01
 514.737760 1  63C             Rx   d 3 3B DD FF
 514.847720 1  55B             Rx   d 1 01
 515.737760 1  63C             Rx   d 3 3B E5 01
 515.847280 1  55B             Rx   d 1 01
 516.719430 1  6C6             Rx   d 7 80 03 1A 52 00 00 05
 516.738040 1  63C             Rx   d 3 3B E6 00
 516.847280 1  55B             Rx   d 1 01
 517.469560 1  6C6             Rx   d 8 80 05 1A 57 83 00 00 05
 517.519150 1  6C6             Rx   d 2 C0 00
 517.738310 1  63C             Rx   d 6 3B E7 FF FF FF FF
 517.847280 1  55B             Rx   d 1 01
 518.060940 1  6C6             Rx   d 7 80 03 1A 53 00 00 05
 518.119890 1  6C6             Rx   d 8 80 05 1A 57 93 04 00 05
 518.171780 1  6C6             Rx   d 2 C0 00
 518.670540 1  6C6             Rx   d 7 80 03 1A 54 00 00 05
 518.720240 1  6C6             Rx   d 8 80 05 1A 57 93 09 00 05
 518.738870 1  63C             Rx   d 8 3B C2 03 00 2F 00 03 04
 518.771360 1  6C6             Rx   d 2 C0 00
 518.848240 1  55B             Rx   d 1 01
 519.290610 1  6C6             Rx   d 7 80 03 1A 52 00 05 05
 519.363240 1  6C6             Rx   d 8 80 05 1A 57 9F 0E 00 0A
 519.410120 1  6C6             Rx   d 2 C0 00
 519.481140 1  6C6             Rx   d 7 80 03 1A 53 00 05 05
 519.542110 1  6C6             Rx   d 8 80 05 1A 57 9F 18 00 0A
 519.590200 1  6C6             Rx   d 2 C0 00
 519.711530 1  6C6             Rx   d 8 80 05 1A 57 9F 22 00 0A
 519.738640 1  63C             Rx   d 8 80 08 3B C3 38 03 CF FF
 519.761670 1  63C             Rx   d 5 C0 77 00 80 00
 519.763560 1  6C6             Rx   d 2 C0 00
 519.848160 1  55B             Rx   d 1 01
 519.891500 1  6C6             Rx   d 8 80 05 1A 57 9F 2C 00 0A
 519.940560 1  6C6             Rx   d 2 C0 00
 520.062310 1  6C6             Rx   d 8 80 05 1A 57 9F 36 00 0A
 520.110460 1  6C6             Rx   d 2 C0 00
 520.161820 1  6C6             Rx   d 7 80 03 1A 54 00 05 05
 520.231090 1  6C6             Rx   d 8 80 05 1A 57 9F 40 00 0A
 520.280840 1  6C6             Rx   d 2 C0 00
 520.411200 1  6C6             Rx   d 8 80 05 1A 57 9F 4A 00 0A
 520.460780 1  6C6             Rx   d 2 C0 00
 520.591760 1  6C6             Rx   d 8 80 05 1A 57 9F 54 00 0A
 520.641040 1  6C6             Rx   d 2 C0 00
 520.738000 1  63C             Rx   d 3 3B C4 0A
 520.741970 1  6C6             Rx   d 7 80 03 1A 53 00 0A 05
 520.791370 1  6C6             Rx   d 8 80 05 1A 57 9F 5E 00 0A
 520.842060 1  6C6             Rx   d 2 C0 00
 520.847280 1  55B             Rx   d 1 01
 520.901570 1  6C6             Rx   d 7 80 03 1A 54 00 0A 05
 520.961940 1  6C6             Rx   d 8 80 05 1A 57 9F 68 00 0A
 521.010910 1  6C6             Rx   d 2 C0 00
 521.141760 1  6C6             Rx   d 8 80 05 1A 57 9F 72 00 0A
 521.191000 1  6C6             Rx   d 2 C0 00
 521.341680 1  6C6             Rx   d 8 80 05 1A 57 9F 7C 00 0A
 521.391000 1  6C6             Rx   d 2 C0 00
 521.521760 1  6C6             Rx   d 8 80 05 1A 57 9F 86 00 0A
 521.571320 1  6C6             Rx   d 2 C0 00
 521.692130 1  6C6             Rx   d 8 80 05 1A 57 9F 90 00 0A
 521.737760 1  63C             Rx   d 3 3B CE 01
 521.741590 1  6C6             Rx   d 2 C0 00
 521.848270 1  55B             Rx   d 1 01
 521.862110 1  6C6             Rx   d 8 80 05 1A 57 9F 9A 00 0A
 521.911280 1  6C6             Rx   d 2 C0 00
 522.042030 1  6C6             Rx   d 8 80 05 1A 57 9F A4 00 0A
 522.091470 1  6C6             Rx   d 2 C0 00
 522.212060 1  6C6             Rx   d 8 80 05 1A 57 9F AE 00 0A
 522.262740 1  6C6             Rx   d 2 C0 00
 522.392200 1  6C6             Rx   d 8 80 05 1A 57 9F B8 00 0A
 522.441560 1  6C6             Rx   d 2 C0 00
 522.562270 1  6C6             Rx   d 8 80 05 1A 57 9F C2 00 0A
 522.611730 1  6C6             Rx   d 2 C0 00
