date Wed Oct 21 04:15:52 pm 2009
base hex  timestamps absolute
internal events logged
Begin Triggerblock Wed Oct 21 04:15:52 pm 2009
   0.0000 Start of measurement
   0.0030 2  3E1             Rx   d 8 60 00 FF 00 FA 00 84 00
   0.0041 2  5E1             Rx   d 7 00 00 00 00 00 00 00
   0.0286 2  436             Rx   d 8 1A 01 05 01 00 00 00 00
   0.0299 2  35B             Rx   d 8 0F 00 00 00 00 00 00 00
   0.0307 2  653             Rx   d 3 81 08 40
   0.0319 2  470             Rx   d 8 80 00 C6 00 10 00 00 00
   0.0328 2  531             Rx   d 4 C3 00 D0 13
   0.0336 2  575             Rx   d 4 C7 20 00 00
   0.0348 2  621             Rx   d 7 00 08 80 FF 10 B6 30
   0.0378 2  67D             Rx   d 8 80 0B 3C 95 FF FF FF FF
   0.0389 2  635             Rx   d 3 C6 C6 30
   0.0498 2  651             Rx   d 8 C0 33 51 AF 35 54 C0 00
   0.0535 2  2C3             Rx   d 1 07
   0.0549 2  658             Rx   d 8 70 00 00 0E 40 00 00 00
   0.0560 2  2C1             Rx   d 6 00 02 0D 00 02 00
   0.0581 2  66F             Rx   d 8 3A C2 03 00 2B 00 03 01
   0.0599 2  351             Rx   d 8 01 88 FF 00 00 00 00 00
   0.0649 2  359             Rx   d 8 7F 89 FF 00 00 00 80 00
   0.0702 2  67D             Rx   d 8 C0 FF F0 FF FF FF FF FF
   0.0709 2  6D8             Rx   d 3 3B 4F 00
   0.0780 2  43A             Rx   d 8 0B 01 01 01 00 00 00 00
   0.0793 2  470             Rx   d 8 80 00 C6 00 10 00 00 00
   0.0801 2  531             Rx   d 4 C3 00 E0 23
   0.1028 2  3E1             Rx   d 8 60 00 FF 00 FA 00 84 00
   0.1061 2  62F             Rx   d 4 02 80 6F 70
   0.1201 2  6DB             Rx   d 3 30 5A 05
   0.1223 2  42B             Rx   d 6 13 01 00 00 00 00
   0.1299 2  35B             Rx   d 8 0F 00 00 00 00 00 00 00
   0.1312 2  470             Rx   d 8 80 00 C6 00 10 00 00 00
   0.1320 2  531             Rx   d 4 C3 00 F0 33
   0.1327 2  66C             Rx   d 3 3C 5C 00
   0.1339 2  2A1             Rx   d 7 00 C0 00 8F FF FF 3F
   0.1350 2  621             Rx   d 7 00 08 80 FF 10 B6 30
   0.1498 2  651             Rx   d 8 C0 33 51 AF 35 54 C0 00
   0.1536 2  2C3             Rx   d 1 07
   0.1549 2  658             Rx   d 8 70 00 00 0E 40 00 00 00
   0.1560 2  2C1             Rx   d 6 00 02 0D 00 02 00
   0.1571 2  65F             Rx   d 8 02 58 58 58 58 58 58 58
   0.1599 2  351             Rx   d 8 01 88 FF 00 00 00 00 00
   0.1649 2  359             Rx   d 8 7F 89 FF 00 00 00 80 00
   0.1702 2  433             Rx   d 8 15 01 03 01 00 00 00 00
   0.1749 2  523             Rx   d 8 02 80 00 00 FF 03 00 00
   0.1781 2  470             Rx   d 8 80 00 C6 00 10 00 00 00
   0.1789 2  531             Rx   d 4 C3 00 00 C3
   0.1801 2  527             Rx   d 8 10 FF FF B0 79 FF FF 09
   0.2027 2  3E1             Rx   d 8 60 00 FF 00 FA 00 84 00
   0.2038 2  5E1             Rx   d 7 00 00 00 00 00 00 00
   0.2191 2  435             Rx   d 8 16 01 01 01 00 00 00 00
   0.2299 2  35B             Rx   d 8 0F 00 00 00 00 00 00 00
   0.2312 2  470             Rx   d 8 80 00 C6 00 10 00 00 00
   0.2321 2  531             Rx   d 4 C3 00 10 D3
   0.2329 2  575             Rx   d 4 C7 20 00 00
   0.2348 2  621             Rx   d 7 00 08 80 FF 10 B6 30
   0.2394 2  635             Rx   d 3 C6 C6 30
   0.2498 2  651             Rx   d 8 C0 33 51 AF 35 54 C0 00
   0.2537 2  2C3             Rx   d 1 07
   0.2549 2  658             Rx   d 8 70 00 00 0E 40 00 00 00
   0.2560 2  2C1             Rx   d 6 00 02 0D 00 02 00
   0.2599 2  351             Rx   d 8 01 88 FF 00 00 00 00 00
   0.2649 2  359             Rx   d 8 7F 89 FF 00 00 00 80 00
   0.2684 2  436             Rx   d 8 1A 01 05 01 00 00 00 00
   0.2781 2  470             Rx   d 8 80 00 C6 00 10 00 00 00
   0.2789 2  531             Rx   d 4 C3 00 20 E3
   0.3025 2  3E1             Rx   d 8 60 00 FF 00 FA 00 84 00
   0.3061 2  62F             Rx   d 4 02 80 6F 70
   0.3180 2  43A             Rx   d 8 0B 01 01 01 00 00 00 00
   0.3300 2  35B             Rx   d 8 0F 00 00 00 00 00 00 00
   0.3312 2  557             Rx   d 8 00 00 60 01 18 08 00 C9
   0.3324 2  470             Rx   d 8 80 00 C6 00 10 00 00 00
   0.3332 2  531             Rx   d 4 C3 00 30 F3
   0.3342 2  571             Rx   d 6 AE 00 00 00 00 00
   0.3353 2  621             Rx   d 7 00 08 80 FF 10 B6 30
   0.3498 2  651             Rx   d 8 C0 33 51 AF 35 54 C0 00
   0.3537 2  2C3             Rx   d 1 07
   0.3550 2  658             Rx   d 8 70 00 00 0E 40 00 00 00
   0.3560 2  2C1             Rx   d 6 00 02 0D 00 02 00
   0.3572 2  65F             Rx   d 8 00 00 00 00 00 58 58 58
   0.3599 2  351             Rx   d 8 01 88 FF 00 00 00 00 00
   0.3621 2  42B             Rx   d 6 13 01 00 00 00 00
   0.3649 2  359             Rx   d 8 7F 89 FF 00 00 00 80 00
   0.3749 2  523             Rx   d 8 02 80 00 00 FF 03 00 00
   0.3781 2  470             Rx   d 8 80 00 C6 00 10 00 00 00
   0.3789 2  531             Rx   d 4 C3 00 40 83
   0.3801 2  527             Rx   d 8 10 FF FF B0 79 FF FF 09
   0.3814 2  604             Rx   d 8 81 00 00 00 00 00 00 00
   0.3827 2  661             Rx   d 8 83 00 00 00 00 00 00 00
   0.3838 2  507             Rx   d 6 00 00 00 00 00 00
   0.3850 2  5A1             Rx   d 8 CE 00 00 30 00 00 00 00
   0.3862 2  5A3             Rx   d 8 08 7A 1A 32 88 07 03 00
   0.3872 2  5AF             Rx   d 5 FF FF FF FF FF
   0.3884 2  2A1             Rx   d 7 00 C0 00 8F FF FF 3F
   0.4024 2  3E1             Rx   d 8 60 00 FF 00 FA 00 84 00
   0.4035 2  5E1             Rx   d 7 00 00 00 00 00 00 00
   0.4102 2  433             Rx   d 8 15 01 03 01 00 00 00 00
   0.4299 2  35B             Rx   d 8 0F 00 00 00 00 00 00 00
   0.4311 2  655             Rx   d 8 00 00 E0 03 1C 08 00 C9
   0.4324 2  470             Rx   d 8 80 00 C6 00 10 00 00 00
   0.4332 2  531             Rx   d 4 C3 00 50 93
   0.4340 2  575             Rx   d 4 C7 20 00 00
   0.4351 2  621             Rx   d 7 00 08 80 FF 10 B6 30
   0.4390 2  635             Rx   d 3 C6 C6 30
   0.4402 2  63C             Rx   d 8 80 08 3B D0 1E C0 23 00
   0.4498 2  651             Rx   d 8 C0 33 51 AF 35 54 C0 00
   0.4538 2  2C3             Rx   d 1 07
   0.4551 2  658             Rx   d 8 70 00 00 0E 40 00 00 00
   0.4561 2  2C1             Rx   d 6 00 02 0D 00 02 00
   0.4591 2  435             Rx   d 8 16 01 01 01 00 00 00 00
   0.4603 2  351             Rx   d 8 01 88 FF 00 00 00 00 00
   0.4612 2  63C             Rx   d 5 C0 60 00 00 00
   0.4649 2  359             Rx   d 8 7F 89 FF 00 00 00 80 00
   0.4781 2  470             Rx   d 8 80 00 C6 00 10 00 00 00
   0.4789 2  531             Rx   d 4 C3 00 60 A3
   0.5023 2  3E1             Rx   d 8 60 00 FF 00 FA 00 84 00
   0.5060 2  62F             Rx   d 4 02 80 6F 70
   0.5084 2  436             Rx   d 8 1A 01 05 01 00 00 00 00
   0.5277 2  6D2             Rx   d 3 3A 0F 09
   0.5299 2  35B             Rx   d 8 0F 00 00 00 00 00 00 00
   0.5307 2  653             Rx   d 3 81 08 40
   0.5319 2  470             Rx   d 8 80 00 C6 00 10 00 00 00
   0.5327 2  531             Rx   d 4 C3 00 70 B3
   0.5348 2  621             Rx   d 7 00 08 80 FF 10 B6 30
   0.5419 2  665             Rx   d 7 81 00 00 00 F0 00 20
   0.5499 2  651             Rx   d 8 C0 33 51 AF 35 54 C0 00
   0.5539 2  2C3             Rx   d 1 07
   0.5552 2  658             Rx   d 8 70 00 00 0E 40 00 00 00
   0.5562 2  2C1             Rx   d 6 00 02 0D 00 02 00
   0.5573 2  65F             Rx   d 8 01 58 58 58 58 58 58 58
   0.5585 2  43A             Rx   d 8 0B 01 01 01 00 00 00 00
   0.5599 2  351             Rx   d 8 01 88 FF 00 00 00 00 00
   0.5649 2  359             Rx   d 8 7F 89 FF 00 00 00 80 00
   0.5749 2  523             Rx   d 8 02 80 00 00 FF 03 00 00
   0.5781 2  470             Rx   d 8 80 00 C6 00 10 00 00 00
   0.5789 2  531             Rx   d 4 C3 00 80 43
   0.5801 2  527             Rx   d 8 10 FF FF B0 79 FF FF 09
   0.6022 2  3E1             Rx   d 8 60 00 FF 00 FA 00 84 00
   0.6032 2  42B             Rx   d 6 13 01 00 00 00 00
   0.6044 2  3E3             Rx   d 8 FF FF FF 00 00 FE 00 FF
   0.6056 2  5E1             Rx   d 7 00 00 00 00 00 00 00
   0.6188 2  55B             Rx   d 1 80
   0.6299 2  35B             Rx   d 8 0F 00 00 00 00 00 00 00
   0.6312 2  470             Rx   d 8 80 00 C6 00 10 00 00 00
   0.6323 2  2A1             Rx   d 7 00 C0 00 8F FF FF 3F
   0.6331 2  531             Rx   d 4 C3 00 90 53
   0.6340 2  575             Rx   d 4 C7 20 00 00
   0.6350 2  621             Rx   d 7 00 08 80 FF 10 B6 30
   0.6379 2  635             Rx   d 3 C6 C6 30
   0.6498 2  651             Rx   d 8 C0 33 51 AF 35 54 C0 00
   0.6511 2  433             Rx   d 8 15 01 03 01 00 00 00 00
   0.6541 2  2C3             Rx   d 1 07
   0.6553 2  658             Rx   d 8 70 00 00 0E 40 00 00 00
   0.6564 2  2C1             Rx   d 6 00 02 0D 00 02 00
   0.6599 2  351             Rx   d 8 01 88 FF 00 00 00 00 00
   0.6606 2  56F             Rx   d 2 B8 00
   0.6649 2  359             Rx   d 8 7F 89 FF 00 00 00 80 00
   0.6781 2  470             Rx   d 8 80 00 C6 00 10 00 00 00
   0.6789 2  531             Rx   d 4 C3 00 A0 63
   0.6991 2  435             Rx   d 8 16 01 01 01 00 00 00 00
   0.7020 2  3E1             Rx   d 8 60 00 FF 00 FA 00 84 00
   0.7061 2  60E             Rx   d 2 08 01
   0.7070 2  62F             Rx   d 4 02 80 6F 70
   0.7299 2  35B             Rx   d 8 0F 00 00 00 00 00 00 00
   0.7312 2  65D             Rx   d 8 00 00 00 00 F0 40 02 07
   0.7324 2  470             Rx   d 8 80 00 C6 00 10 00 00 00
   0.7333 2  531             Rx   d 4 C3 00 B0 73
   0.7348 2  621             Rx   d 7 00 08 80 FF 10 B6 30
   0.7485 2  436             Rx   d 8 1A 01 05 01 00 00 00 00
   0.7499 2  651             Rx   d 8 C0 33 51 AF 35 54 C0 00
   0.7541 2  2C3             Rx   d 1 07
   0.7553 2  658             Rx   d 8 70 00 00 0E 40 00 00 00
   0.7564 2  2C1             Rx   d 6 00 02 0D 00 02 00
   0.7575 2  65F             Rx   d 8 02 58 58 58 58 58 58 58
   0.7599 2  351             Rx   d 8 01 88 FF 00 00 00 00 00
   0.7649 2  359             Rx   d 8 7F 89 FF 00 00 00 80 00
   0.7749 2  523             Rx   d 8 02 80 00 00 FF 03 00 00
   0.7781 2  470             Rx   d 8 80 00 C6 00 10 00 00 00
   0.7789 2  531             Rx   d 4 C3 00 C0 03
   0.7801 2  527             Rx   d 8 10 FF FF B0 79 FF FF 09
   0.7980 2  43A             Rx   d 8 0B 01 01 01 00 00 00 00
   0.8018 2  3E1             Rx   d 8 60 00 FF 00 FA 00 84 00
   0.8029 2  5E1             Rx   d 7 00 00 00 00 00 00 00
   0.8300 2  35B             Rx   d 8 0F 00 00 00 00 00 00 00
   0.8312 2  557             Rx   d 8 00 00 60 01 18 08 00 C9
   0.8324 2  470             Rx   d 8 80 00 C6 00 10 00 00 00
   0.8332 2  531             Rx   d 4 C3 00 D0 13
   0.8342 2  571             Rx   d 6 AE 00 00 00 00 00
   0.8351 2  575             Rx   d 4 C7 20 00 00
   0.8361 2  621             Rx   d 7 00 08 80 FF 10 B6 30
   0.8380 2  635             Rx   d 3 C6 C6 30
   0.8421 2  42B             Rx   d 6 13 01 00 00 00 00
   0.8477 2  63B             Rx   d 3 3A 44 0A
   0.8498 2  651             Rx   d 8 C0 33 51 AF 35 54 C0 00
   0.8542 2  2C3             Rx   d 1 07
   0.8554 2  658             Rx   d 8 70 00 00 0E 40 00 00 00
   0.8564 2  2C1             Rx   d 6 00 02 0D 00 02 00
   0.8599 2  351             Rx   d 8 01 88 FF 00 00 00 00 00
   0.8649 2  359             Rx   d 8 7F 89 FF 00 00 00 80 00
   0.8780 2  2A1             Rx   d 7 00 C0 00 8F FF FF 3F
   0.8792 2  470             Rx   d 8 80 00 C6 00 10 00 00 00
   0.8800 2  531             Rx   d 4 C3 00 E0 23
   0.8902 2  433             Rx   d 8 15 01 03 01 00 00 00 00
   0.9018 2  3E1             Rx   d 8 60 00 FF 00 FA 00 84 00
   0.9060 2  62F             Rx   d 4 02 80 6F 70
   0.9300 2  35B             Rx   d 8 0F 00 00 00 00 00 00 00
   0.9312 2  655             Rx   d 8 00 00 E0 03 1C 08 00 C9
   0.9324 2  470             Rx   d 8 80 00 C6 00 10 00 00 00
   0.9332 2  531             Rx   d 4 C3 00 F0 33
   0.9348 2  621             Rx   d 7 00 08 80 FF 10 B6 30
   0.9391 2  435             Rx   d 8 16 01 01 01 00 00 00 00
   0.9498 2  651             Rx   d 8 C0 33 51 AF 35 54 C0 00
   0.9543 2  2C3             Rx   d 1 07
   0.9555 2  658             Rx   d 8 70 00 00 0E 40 00 00 00
   0.9565 2  2C1             Rx   d 6 00 02 0D 00 02 00
   0.9578 2  65F             Rx   d 8 00 00 00 00 00 58 58 58
   0.9599 2  351             Rx   d 8 01 88 FF 00 00 00 00 00
   0.9649 2  359             Rx   d 8 7F 89 FF 00 00 00 80 00
   0.9749 2  523             Rx   d 8 02 80 00 00 FF 03 00 00
   0.9781 2  470             Rx   d 8 80 00 C6 00 10 00 00 00
   0.9789 2  531             Rx   d 4 C3 00 00 C3
   0.9801 2  527             Rx   d 8 10 FF FF B0 79 FF FF 09
   0.9883 2  436             Rx   d 8 1A 01 05 01 00 00 00 00
   1.0008 CAN 2 Status:chip status error active
   1.0016 2  3E1             Rx   d 8 60 00 FF 00 FA 00 84 00
   1.0027 2  5E1             Rx   d 7 00 00 00 00 00 00 00
   1.0100 2  Statistic: D 222 R 0 XD 0 XR 0 E 0 O 0 B 23.36%
   1.0299 2  35B             Rx   d 8 0F 00 00 00 00 00 00 00
   1.0307 2  653             Rx   d 3 81 08 40
   1.0320 2  470             Rx   d 8 80 00 C6 00 10 00 00 00
   1.0328 2  531             Rx   d 4 C3 00 10 D3
   1.0336 2  575             Rx   d 4 C7 20 00 00
   1.0348 2  621             Rx   d 7 00 08 80 FF 10 B6 30
   1.0377 2  67D             Rx   d 8 3C 82 03 00 32 00 03 00
   1.0389 2  43A             Rx   d 8 0B 01 01 01 00 00 00 00
   1.0396 2  635             Rx   d 3 C6 C6 30
   1.0499 2  651             Rx   d 8 C0 33 51 AF 35 54 C0 00
   1.0549 2  658             Rx   d 8 70 00 00 0E 40 00 00 00
   1.0555 2  2C3             Rx   d 1 07
   1.0570 2  2C1             Rx   d 6 00 02 0D 00 02 00
   1.0582 2  66F             Rx   d 8 80 08 3A C3 38 01 FF 00
   1.0599 2  351             Rx   d 8 01 88 FF 00 00 00 00 00
   1.0649 2  359             Rx   d 8 7F 89 FF 00 00 00 80 00
   1.0697 2  6D8             Rx   d 3 3B 53 03
   1.0781 2  470             Rx   d 8 80 00 C6 00 10 00 00 00
   1.0789 2  531             Rx   d 4 C3 00 20 E3
   1.0799 2  66F             Rx   d 5 C0 00 00 00 00
   1.0822 2  42B             Rx   d 6 13 01 00 00 00 00
   1.1014 2  3E1             Rx   d 8 60 00 FF 00 FA 00 84 00
   1.1060 2  62F             Rx   d 4 02 80 6F 70
   1.1189 2  6DB             Rx   d 4 30 5B 00 00
   1.1300 2  35B             Rx   d 8 0F 00 00 00 00 00 00 00
   1.1312 2  433             Rx   d 8 15 01 03 01 00 00 00 00
   1.1324 2  470             Rx   d 8 80 00 C6 00 10 00 00 00
   1.1332 2  531             Rx   d 4 C3 00 30 F3
   1.1340 2  66C             Rx   d 3 3C 5D 03
   1.1350 2  621             Rx   d 7 00 08 80 FF 10 B6 30
   1.1362 2  2A1             Rx   d 7 00 C0 00 8F FF FF 3F
   1.1498 2  651             Rx   d 8 C0 33 51 AF 35 54 C0 00
   1.1549 2  658             Rx   d 8 70 00 00 0E 40 00 00 00
   1.1555 2  2C3             Rx   d 1 07
   1.1567 2  65F             Rx   d 8 01 58 58 58 58 58 58 58
   1.1577 2  2C1             Rx   d 6 00 02 0D 00 02 00
   1.1599 2  351             Rx   d 8 01 88 FF 00 00 00 00 00
   1.1649 2  359             Rx   d 8 7F 89 FF 00 00 00 80 00
   1.1749 2  523             Rx   d 8 02 80 00 00 FF 03 00 00
   1.1781 2  470             Rx   d 8 80 00 C6 00 10 00 00 00
   1.1793 2  435             Rx   d 8 16 01 01 01 00 00 00 00
   1.1805 2  527             Rx   d 8 10 FF FF B0 79 FF FF 09
   1.1813 2  531             Rx   d 4 C3 00 40 83
   1.2012 2  3E1             Rx   d 8 60 00 FF 00 FA 00 84 00
   1.2024 2  5E1             Rx   d 7 00 00 00 00 00 00 00
   1.2288 2  436             Rx   d 8 1A 01 05 01 00 00 00 00
   1.2300 2  35B             Rx   d 8 0F 00 00 00 00 00 00 00
   1.2313 2  470             Rx   d 8 80 00 C6 00 10 00 00 00
   1.2321 2  531             Rx   d 4 C3 00 50 93
   1.2329 2  575             Rx   d 4 C7 20 00 00
   1.2348 2  621             Rx   d 7 00 08 80 FF 10 B6 30
   1.2382 2  635             Rx   d 3 C6 C6 30
   1.2499 2  651             Rx   d 8 C0 33 51 AF 35 54 C0 00
   1.2549 2  658             Rx   d 8 70 00 00 0E 40 00 00 00
   1.2555 2  2C3             Rx   d 1 07
   1.2572 2  2C1             Rx   d 6 00 02 0D 00 02 00
   1.2599 2  351             Rx   d 8 01 88 FF 00 00 00 00 00
   1.2649 2  359             Rx   d 8 7F 89 FF 00 00 00 80 00
   1.2781 2  43A             Rx   d 8 0B 01 01 01 00 00 00 00
   1.2793 2  470             Rx   d 8 80 00 C6 00 10 00 00 00
   1.2801 2  531             Rx   d 4 C3 00 60 A3
   1.3012 2  3E1             Rx   d 8 60 00 FF 00 FA 00 84 00
   1.3060 2  62F             Rx   d 4 02 80 6F 70
   1.3223 2  42B             Rx   d 6 13 01 00 00 00 00
   1.3300 2  35B             Rx   d 8 0F 00 00 00 00 00 00 00
   1.3312 2  557             Rx   d 8 00 00 60 01 18 08 00 C9
   1.3324 2  470             Rx   d 8 80 00 C6 00 10 00 00 00
   1.3332 2  531             Rx   d 4 C3 00 70 B3
   1.3342 2  571             Rx   d 6 AE 00 00 00 00 00
   1.3353 2  621             Rx   d 7 00 08 80 FF 10 B6 30
   1.3499 2  651             Rx   d 8 C0 33 51 AF 35 54 C0 00
   1.3549 2  658             Rx   d 8 70 00 00 0E 40 00 00 00
   1.3555 2  2C3             Rx   d 1 07
   1.3566 2  65F             Rx   d 8 02 58 58 58 58 58 58 58
   1.3577 2  2C1             Rx   d 6 00 02 0D 00 02 00
   1.3599 2  351             Rx   d 8 01 88 FF 00 00 00 00 00
   1.3649 2  359             Rx   d 8 7F 89 FF 00 00 00 80 00
   1.3701 2  433             Rx   d 8 15 01 03 01 00 00 00 00
   1.3749 2  523             Rx   d 8 02 80 00 00 FF 03 00 00
   1.3781 2  604             Rx   d 8 81 00 00 00 00 00 00 00
   1.3793 2  470             Rx   d 8 80 00 C6 00 10 00 00 00
   1.3801 2  531             Rx   d 4 C3 00 80 43
   1.3813 2  527             Rx   d 8 10 FF FF B0 79 FF FF 09
   1.3825 2  5A3             Rx   d 8 08 7A 1A 32 88 07 03 00
   1.3838 2  661             Rx   d 8 83 00 00 00 00 00 00 00
   1.3849 2  507             Rx   d 6 00 00 00 00 00 00
   1.3859 2  5AF             Rx   d 5 FF FF FF FF FF
   1.3870 2  2A1             Rx   d 7 00 C0 00 8F FF FF 3F
   1.3883 2  5A1             Rx   d 8 CE 00 00 30 00 00 00 00
   1.4010 2  3E1             Rx   d 8 60 00 FF 00 FA 00 84 00
   1.4022 2  3E3             Rx   d 8 FF FF FF 00 00 FE 00 FF
   1.4034 2  5E1             Rx   d 7 00 00 00 00 00 00 00
   1.4191 2  435             Rx   d 8 16 01 01 01 00 00 00 00
   1.4299 2  35B             Rx   d 8 0F 00 00 00 00 00 00 00
   1.4311 2  655             Rx   d 8 00 00 E0 03 1C 08 00 C9
   1.4324 2  470             Rx   d 8 80 00 C6 00 10 00 00 00
   1.4332 2  531             Rx   d 4 C3 00 90 53
   1.4340 2  575             Rx   d 4 C7 20 00 00
   1.4351 2  621             Rx   d 7 00 08 80 FF 10 B6 30
   1.4390 2  635             Rx   d 3 C6 C6 30
   1.4401 2  63C             Rx   d 8 90 07 3B D1 05 41 75 78
   1.4499 2  651             Rx   d 8 C0 33 51 AF 35 54 C0 00
   1.4550 2  658             Rx   d 8 70 00 00 0E 40 00 00 00
   1.4555 2  2C3             Rx   d 1 07
   1.4574 2  2C1             Rx   d 6 00 02 0D 00 02 00
   1.4593 2  63C             Rx   d 4 D0 49 6E 20
   1.4605 2  351             Rx   d 8 01 88 FF 00 00 00 00 00
   1.4649 2  359             Rx   d 8 7F 89 FF 00 00 00 80 00
   1.4683 2  436             Rx   d 8 1A 01 05 01 00 00 00 00
   1.4781 2  470             Rx   d 8 80 00 C6 00 10 00 00 00
   1.4790 2  531             Rx   d 4 C3 00 A0 63
   1.5008 2  3E1             Rx   d 8 60 00 FF 00 FA 00 84 00
   1.5060 2  62F             Rx   d 4 02 80 6F 70
   1.5181 2  43A             Rx   d 8 0B 01 01 01 00 00 00 00
   1.5282 2  6D2             Rx   d 8 80 08 3A 10 1E C0 DF FE
   1.5300 2  35B             Rx   d 8 0F 00 00 00 00 00 00 00
   1.5307 2  653             Rx   d 3 81 08 40
   1.5320 2  470             Rx   d 8 80 00 C6 00 10 00 00 00
   1.5328 2  531             Rx   d 4 C3 00 B0 73
   1.5348 2  621             Rx   d 7 00 08 80 FF 10 B6 30
   1.5419 2  665             Rx   d 7 81 00 00 00 F0 00 20
   1.5499 2  651             Rx   d 8 C0 33 51 AF 35 54 C0 00
   1.5549 2  658             Rx   d 8 70 00 00 0E 40 00 00 00
   1.5555 2  2C3             Rx   d 1 07
   1.5567 2  65F             Rx   d 8 00 00 00 00 00 58 58 58
   1.5578 2  2C1             Rx   d 6 00 02 0D 00 02 00
   1.5587 2  6D2             Rx   d 5 C0 D7 09 00 00
   1.5600 2  351             Rx   d 8 01 88 FF 00 00 00 00 00
   1.5621 2  42B             Rx   d 6 13 01 00 00 00 00
   1.5649 2  359             Rx   d 8 7F 89 FF 00 00 00 80 00
   1.5749 2  523             Rx   d 8 02 80 00 00 FF 03 00 00
   1.5781 2  470             Rx   d 8 80 00 C6 00 10 00 00 00
   1.5790 2  531             Rx   d 4 C3 00 C0 03
   1.5802 2  527             Rx   d 8 10 FF FF B0 79 FF FF 09
   1.6007 2  3E1             Rx   d 8 60 00 FF 00 FA 00 84 00
   1.6018 2  5E1             Rx   d 7 00 00 00 00 00 00 00
   1.6101 2  433             Rx   d 8 15 01 03 01 00 00 00 00
   1.6188 2  55B             Rx   d 1 80
   1.6299 2  35B             Rx   d 8 0F 00 00 00 00 00 00 00
   1.6311 2  2A1             Rx   d 7 00 C0 00 8F FF FF 3F
   1.6323 2  470             Rx   d 8 80 00 C6 00 10 00 00 00
   1.6331 2  531             Rx   d 4 C3 00 D0 13
   1.6340 2  575             Rx   d 4 C7 20 00 00
   1.6350 2  621             Rx   d 7 00 08 80 FF 10 B6 30
   1.6379 2  635             Rx   d 3 C6 C6 30
   1.6499 2  651             Rx   d 8 C0 33 51 AF 35 54 C0 00
   1.6549 2  658             Rx   d 8 70 00 00 0E 40 00 00 00
   1.6555 2  2C3             Rx   d 1 07
   1.6575 2  2C1             Rx   d 6 00 02 0D 00 02 00
   1.6591 2  435             Rx   d 8 16 01 01 01 00 00 00 00
   1.6603 2  351             Rx   d 8 01 88 FF 00 00 00 00 00
   1.6610 2  56F             Rx   d 2 B8 00
   1.6649 2  359             Rx   d 8 7F 89 FF 00 00 00 80 00
   1.6781 2  470             Rx   d 8 80 00 C6 00 10 00 00 00
   1.6789 2  531             Rx   d 4 C3 00 E0 23
   1.7004 2  3E1             Rx   d 8 60 00 FF 00 FA 00 84 00
   1.7062 2  60E             Rx   d 2 08 01
   1.7070 2  62F             Rx   d 4 02 80 6F 70
   1.7083 2  436             Rx   d 8 1A 01 05 01 00 00 00 00
   1.7300 2  35B             Rx   d 8 0F 00 00 00 00 00 00 00
   1.7312 2  65D             Rx   d 8 00 00 00 00 F0 40 82 07
   1.7324 2  470             Rx   d 8 80 00 C6 00 10 00 00 00
   1.7332 2  531             Rx   d 4 C3 00 F0 33
   1.7348 2  621             Rx   d 7 00 08 80 FF 10 B6 30
   1.7499 2  651             Rx   d 8 C0 33 51 AF 35 54 C0 00
   1.7549 2  658             Rx   d 8 70 00 00 0E 40 00 00 00
   1.7563 2  65F             Rx   d 8 01 58 58 58 58 58 58 58
   1.7569 2  2C3             Rx   d 1 07
   1.7581 2  43A             Rx   d 8 0B 01 01 01 00 00 00 00
   1.7599 2  351             Rx   d 8 01 88 FF 00 00 00 00 00
   1.7610 2  2C1             Rx   d 6 00 02 0D 00 02 00
   1.7649 2  359             Rx   d 8 7F 89 FF 00 00 00 80 00
   1.7749 2  523             Rx   d 8 02 80 00 00 FF 03 00 00
   1.7781 2  470             Rx   d 8 80 00 C6 00 10 00 00 00
   1.7789 2  531             Rx   d 4 C3 00 00 C3
   1.7802 2  527             Rx   d 8 10 FF FF B0 79 FF FF 09
   1.8004 2  3E1             Rx   d 8 60 00 FF 00 FA 00 84 00
   1.8015 2  5E1             Rx   d 7 00 00 00 00 00 00 00
   1.8026 2  42B             Rx   d 6 13 01 00 00 00 00
   1.8300 2  35B             Rx   d 8 0F 00 00 00 00 00 00 00
   1.8312 2  557             Rx   d 8 00 00 60 01 18 08 00 C9
   1.8324 2  470             Rx   d 8 80 00 C6 00 10 00 00 00
   1.8332 2  531             Rx   d 4 C3 00 10 D3
   1.8343 2  571             Rx   d 6 AE 00 00 00 00 00
   1.8351 2  575             Rx   d 4 C7 20 00 00
   1.8362 2  621             Rx   d 7 00 08 80 FF 10 B6 30
   1.8380 2  635             Rx   d 3 C6 C6 30
   1.8477 2  63B             Rx   d 3 3A 4E 02
   1.8499 2  651             Rx   d 8 C0 33 51 AF 35 54 C0 00
   1.8511 2  433             Rx   d 8 15 01 03 01 00 00 00 00
   1.8549 2  658             Rx   d 8 70 00 00 0E 40 00 00 00
   1.8561 2  2C3             Rx   d 1 07
   1.8584 2  2C1             Rx   d 6 00 02 0D 00 02 00
   1.8599 2  351             Rx   d 8 01 88 FF 00 00 00 00 00
   1.8649 2  359             Rx   d 8 7F 89 FF 00 00 00 80 00
   1.8779 2  2A1             Rx   d 7 00 C0 00 8F FF FF 3F
   1.8791 2  470             Rx   d 8 80 00 C6 00 10 00 00 00
   1.8799 2  531             Rx   d 4 C3 00 20 E3
   1.8991 2  435             Rx   d 8 16 01 01 01 00 00 00 00
   1.9003 2  3E1             Rx   d 8 60 00 FF 00 FA 00 84 00
   1.9061 2  62F             Rx   d 4 02 80 6F 70
   1.9300 2  35B             Rx   d 8 0F 00 00 00 00 00 00 00
   1.9312 2  655             Rx   d 8 00 00 E0 03 1C 08 00 C9
   1.9324 2  470             Rx   d 8 80 00 C6 00 10 00 00 00
   1.9332 2  531             Rx   d 4 C3 00 30 F3
   1.9348 2  621             Rx   d 7 00 08 80 FF 10 B6 30
   1.9482 2  436             Rx   d 8 1A 01 05 01 00 00 00 00
   1.9499 2  651             Rx   d 8 C0 33 51 AF 35 54 C0 00
   1.9550 2  658             Rx   d 8 70 00 00 0E 40 00 00 00
   1.9563 2  65F             Rx   d 8 02 58 58 58 58 58 58 58
   1.9569 2  2C3             Rx   d 1 07
   1.9600 2  351             Rx   d 8 01 88 FF 00 00 00 00 00
   1.9610 2  2C1             Rx   d 6 00 02 0D 00 02 00
   1.9649 2  359             Rx   d 8 7F 89 FF 00 00 00 80 00
   1.9749 2  523             Rx   d 8 02 80 00 00 FF 03 00 00
   1.9782 2  470             Rx   d 8 80 00 C6 00 10 00 00 00
   1.9790 2  531             Rx   d 4 C3 00 40 83
   1.9803 2  527             Rx   d 8 10 FF FF B0 79 FF FF 09
   1.9981 2  43A             Rx   d 8 0B 01 01 01 00 00 00 00
   2.0002 2  3E1             Rx   d 8 60 00 FF 00 FA 00 84 00
   2.0014 2  5E1             Rx   d 7 00 00 00 00 00 00 00
   2.0100 2  Statistic: D 221 R 0 XD 0 XR 0 E 0 O 0 B 23.63%
   2.0300 2  35B             Rx   d 8 0F 00 00 00 00 00 00 00
   2.0307 2  653             Rx   d 3 81 08 40
   2.0320 2  470             Rx   d 8 80 00 C6 00 10 00 00 00
   2.0328 2  531             Rx   d 4 C3 00 50 93
   2.0336 2  575             Rx   d 4 C7 20 00 00
   2.0348 2  621             Rx   d 7 00 08 80 FF 10 B6 30
   2.0376 2  67D             Rx   d 8 80 08 3C 83 38 01 FF 00
   2.0388 2  635             Rx   d 3 C6 C6 30
   2.0421 2  42B             Rx   d 6 13 01 00 00 00 00
   2.0499 2  651             Rx   d 8 C0 33 51 AF 35 54 C0 00
   2.0549 2  658             Rx   d 8 70 00 00 0E 40 00 00 00
   2.0561 2  2C3             Rx   d 1 07
   2.0577 2  66F             Rx   d 3 3A C4 0A
   2.0588 2  2C1             Rx   d 6 00 02 0D 00 02 00
   2.0600 2  351             Rx   d 8 01 88 FF 00 00 00 00 00
   2.0649 2  359             Rx   d 8 7F 89 FF 00 00 00 80 00
   2.0697 2  67D             Rx   d 5 C0 00 00 00 00
   2.0707 2  6D8             Rx   d 6 3B 56 28 00 00 00
   2.0777 2  66F             Rx   d 3 4A D7 01
   2.0789 2  470             Rx   d 8 80 00 C6 00 10 00 00 00
   2.0800 2  531             Rx   d 4 C3 00 60 A3
   2.0900 2  433             Rx   d 8 15 01 03 01 00 00 00 00
   2.0973 2  67C             Rx   d 3 0A D7 01
   2.1000 2  3E1             Rx   d 8 60 00 FF 00 FA 00 84 00
   2.1060 2  62F             Rx   d 4 02 80 6F 70
   2.1174 2  6DB             Rx   d 3 30 5C 07
   2.1300 2  35B             Rx   d 8 0F 00 00 00 00 00 00 00
   2.1312 2  66C             Rx   d 8 3C 42 03 00 31 00 03 01
   2.1324 2  470             Rx   d 8 80 00 C6 00 10 00 00 00
   2.1335 2  2A1             Rx   d 7 00 C0 00 8F FF FF 3F
   2.1343 2  531             Rx   d 4 C3 00 70 B3
   2.1354 2  621             Rx   d 7 00 08 80 FF 10 B6 30
   2.1391 2  435             Rx   d 8 16 01 01 01 00 00 00 00
   2.1499 2  651             Rx   d 8 C0 33 51 AF 35 54 C0 00
   2.1549 2  658             Rx   d 8 70 00 00 0E 40 00 00 00
   2.1564 2  65F             Rx   d 8 00 00 00 00 00 58 58 58
   2.1569 2  2C3             Rx   d 1 07
   2.1600 2  351             Rx   d 8 01 88 FF 00 00 00 00 00
   2.1610 2  2C1             Rx   d 6 00 02 0D 00 02 00
   2.1649 2  359             Rx   d 8 7F 89 FF 00 00 00 80 00
   2.1749 2  523             Rx   d 8 02 80 00 00 FF 03 00 00
   2.1784 2  470             Rx   d 8 80 00 C6 00 10 00 00 00
   2.1792 2  531             Rx   d 4 C3 00 80 43
   2.1804 2  527             Rx   d 8 10 FF FF B0 79 FF FF 09
   2.1883 2  436             Rx   d 8 1A 01 05 01 00 00 00 00
   2.1998 2  3E1             Rx   d 8 60 00 FF 00 FA 00 84 00
   2.2011 2  3E3             Rx   d 8 FF FF FF 00 00 FE 00 FF
   2.2023 2  5E1             Rx   d 7 00 00 00 00 00 00 00
   2.2300 2  35B             Rx   d 8 0F 00 00 00 00 00 00 00
   2.2312 2  470             Rx   d 8 80 00 C6 00 10 00 00 00
   2.2320 2  531             Rx   d 4 C3 00 90 53
   2.2328 2  575             Rx   d 4 C7 20 00 00
   2.2348 2  621             Rx   d 7 00 08 80 FF 10 B6 30
   2.2381 2  43A             Rx   d 8 0B 01 01 01 00 00 00 00
   2.2388 2  635             Rx   d 3 C6 C6 30
   2.2499 2  651             Rx   d 8 C0 33 51 AF 35 54 C0 00
   2.2549 2  658             Rx   d 8 70 00 00 0E 40 00 00 00
   2.2561 2  2C3             Rx   d 1 07
   2.2596 2  2C1             Rx   d 6 00 02 0D 00 02 00
   2.2608 2  351             Rx   d 8 01 88 FF 00 00 00 00 00
   2.2649 2  359             Rx   d 8 7F 89 FF 00 00 00 80 00
   2.2785 2  470             Rx   d 8 80 00 C6 00 10 00 00 00
   2.2793 2  531             Rx   d 4 C3 00 A0 63
   2.2821 2  42B             Rx   d 6 13 01 00 00 00 00
   2.2997 2  3E1             Rx   d 8 60 00 FF 00 FA 00 84 00
   2.3060 2  62F             Rx   d 4 02 80 6F 70
   2.3300 2  35B             Rx   d 8 0F 00 00 00 00 00 00 00
   2.3312 2  433             Rx   d 8 15 01 03 01 00 00 00 00
   2.3324 2  557             Rx   d 8 00 00 60 01 18 08 00 C9
   2.3336 2  470             Rx   d 8 80 00 C6 00 10 00 00 00
   2.3344 2  531             Rx   d 4 C3 00 B0 73
   2.3355 2  571             Rx   d 6 AF 00 00 00 00 00
   2.3365 2  621             Rx   d 7 00 08 80 FF 10 B6 30
   2.3499 2  651             Rx   d 8 C0 33 51 AF 35 54 C0 00
   2.3549 2  658             Rx   d 8 70 00 00 0E 40 00 00 00
   2.3563 2  65F             Rx   d 8 01 58 58 58 58 58 58 58
   2.3569 2  2C3             Rx   d 1 07
   2.3600 2  351             Rx   d 8 01 88 FF 00 00 00 00 00
   2.3610 2  2C1             Rx   d 6 00 02 0D 00 02 00
   2.3649 2  359             Rx   d 8 7F 89 FF 00 00 00 80 00
   2.3749 2  523             Rx   d 8 02 80 00 00 FF 03 00 00
   2.3780 2  604             Rx   d 8 81 00 00 00 00 00 00 00
   2.3792 2  435             Rx   d 8 16 01 01 01 00 00 00 00
   2.3804 2  470             Rx   d 8 80 00 C6 00 10 00 00 00
   2.3812 2  531             Rx   d 4 C3 00 C0 03
   2.3825 2  527             Rx   d 8 10 FF FF B0 79 FF FF 09
   2.3836 2  5A3             Rx   d 8 08 7A 1A 32 88 07 03 00
   2.3849 2  661             Rx   d 8 83 00 00 00 00 00 00 00
   2.3860 2  507             Rx   d 6 00 00 00 00 00 00
   2.3870 2  5AF             Rx   d 5 FF FF FF FF FF
   2.3882 2  2A1             Rx   d 7 00 C0 00 8F FF FF 3F
   2.3894 2  5A1             Rx   d 8 CE 00 00 30 00 00 00 00
   2.3997 2  3E1             Rx   d 8 60 00 FF 00 FA 00 84 00
   2.4009 2  5E1             Rx   d 7 00 00 00 00 00 00 00
   2.4287 2  436             Rx   d 8 1A 01 05 01 00 00 00 00
   2.4300 2  35B             Rx   d 8 0F 00 00 00 00 00 00 00
   2.4312 2  655             Rx   d 8 00 00 E0 03 1C 08 00 C9
   2.4324 2  470             Rx   d 8 80 00 C6 00 10 00 00 00
   2.4332 2  531             Rx   d 4 C3 00 D0 13
   2.4341 2  575             Rx   d 4 C7 20 00 00
   2.4351 2  621             Rx   d 7 00 08 80 FF 10 B6 30
   2.4390 2  635             Rx   d 3 C6 C6 30
   2.4398 2  63C             Rx   d 3 3B D4 FF
   2.4499 2  651             Rx   d 8 C0 33 51 AF 35 54 C0 00
   2.4550 2  658             Rx   d 8 70 00 00 0E 40 00 00 00
   2.4561 2  2C3             Rx   d 1 07
   2.4596 2  2C1             Rx   d 6 00 02 0D 00 02 00
   2.4609 2  351             Rx   d 8 01 88 FF 00 00 00 00 00
   2.4649 2  359             Rx   d 8 7F 89 FF 00 00 00 80 00
   2.4781 2  43A             Rx   d 8 0B 01 01 01 00 00 00 00
   2.4793 2  470             Rx   d 8 80 00 C6 00 10 00 00 00
   2.4802 2  531             Rx   d 4 C3 00 E0 23
   2.4998 2  3E1             Rx   d 8 60 00 FF 00 FA 00 84 00
   2.5059 2  62F             Rx   d 4 02 80 6F 70
   2.5223 2  42B             Rx   d 6 13 01 00 00 00 00
   2.5277 2  6D2             Rx   d 3 3A 13 01
   2.5300 2  35B             Rx   d 8 0F 00 00 00 00 00 00 00
   2.5307 2  653             Rx   d 3 81 08 40
   2.5320 2  470             Rx   d 8 80 00 C6 00 10 00 00 00
   2.5328 2  531             Rx   d 4 C3 00 F0 33
   2.5348 2  621             Rx   d 7 00 08 80 FF 10 B6 30
   2.5420 2  665             Rx   d 7 81 00 00 00 F0 00 20
   2.5499 2  651             Rx   d 8 C0 33 51 AF 35 54 C0 00
   2.5549 2  658             Rx   d 8 70 00 00 0E 40 00 00 00
   2.5562 2  65F             Rx   d 8 02 58 58 58 58 58 58 58
   2.5569 2  2C3             Rx   d 1 07
   2.5599 2  351             Rx   d 8 01 88 FF 00 00 00 00 00
   2.5615 2  2C1             Rx   d 6 00 02 0D 00 02 00
   2.5649 2  359             Rx   d 8 7F 89 FF 00 00 00 80 00
   2.5700 2  433             Rx   d 8 15 01 03 01 00 00 00 00
   2.5749 2  523             Rx   d 8 02 80 00 00 FF 03 00 00
   2.5787 2  470             Rx   d 8 80 00 C6 00 10 00 00 00
   2.5796 2  531             Rx   d 4 C3 00 00 C3
   2.5808 2  527             Rx   d 8 10 FF FF B0 79 FF FF 09
   2.5999 2  3E1             Rx   d 8 60 00 FF 00 FA 00 84 00
   2.6011 2  5E1             Rx   d 7 00 00 00 00 00 00 00
   2.6191 2  435             Rx   d 8 16 01 01 01 00 00 00 00
   2.6198 2  55B             Rx   d 1 80
   2.6300 2  35B             Rx   d 8 0F 00 00 00 00 00 00 00
   2.6311 2  2A1             Rx   d 7 00 C0 00 8F FF FF 3F
   2.6323 2  470             Rx   d 8 80 00 C6 00 10 00 00 00
   2.6331 2  531             Rx   d 4 C3 00 10 D3
   2.6340 2  575             Rx   d 4 C7 20 00 00
   2.6350 2  621             Rx   d 7 00 08 80 FF 10 B6 30
   2.6379 2  635             Rx   d 3 C6 C6 30
   2.6499 2  651             Rx   d 8 C0 33 51 AF 35 54 C0 00
   2.6549 2  658             Rx   d 8 70 00 00 0E 40 00 00 00
   2.6561 2  2C3             Rx   d 1 07
   2.6576 2  2C1             Rx   d 6 00 02 0D 00 02 00
   2.6599 2  351             Rx   d 8 01 88 FF 00 00 00 00 00
   2.6606 2  56F             Rx   d 2 B8 00
   2.6649 2  359             Rx   d 8 7F 89 FF 00 00 00 80 00
   2.6682 2  436             Rx   d 8 1A 01 05 01 00 00 00 00
   2.6788 2  470             Rx   d 8 80 00 C6 00 10 00 00 00
   2.6797 2  531             Rx   d 4 C3 00 20 E3
   2.7000 2  3E1             Rx   d 8 60 00 FF 00 FA 00 84 00
   2.7061 2  60E             Rx   d 2 08 01
   2.7069 2  62F             Rx   d 4 02 80 6F 70
   2.7181 2  43A             Rx   d 8 0B 01 01 01 00 00 00 00
   2.7299 2  35B             Rx   d 8 0F 00 00 00 00 00 00 00
   2.7312 2  65D             Rx   d 8 00 00 00 00 F0 40 02 08
   2.7324 2  470             Rx   d 8 80 00 C6 00 10 00 00 00
   2.7333 2  531             Rx   d 4 C3 00 30 F3
   2.7348 2  621             Rx   d 7 00 08 80 FF 10 B6 30
   2.7499 2  651             Rx   d 8 C0 33 51 AF 35 54 C0 00
   2.7549 2  658             Rx   d 8 70 00 00 0E 40 00 00 00
   2.7563 2  65F             Rx   d 8 00 00 00 00 00 58 58 58
   2.7569 2  2C3             Rx   d 1 07
   2.7588 2  2C1             Rx   d 6 00 02 0D 00 02 00
   2.7600 2  351             Rx   d 8 01 88 FF 00 00 00 00 00
   2.7621 2  42B             Rx   d 6 13 01 00 00 00 00
   2.7649 2  359             Rx   d 8 7F 89 FF 00 00 00 80 00
   2.7749 2  523             Rx   d 8 02 80 00 00 FF 03 00 00
   2.7799 2  470             Rx   d 8 80 00 C6 00 10 00 00 00
   2.7811 2  527             Rx   d 8 10 FF FF B0 79 FF FF 09
   2.7819 2  531             Rx   d 4 C3 00 40 83
   2.7998 2  3E1             Rx   d 8 60 00 FF 00 FA 00 84 00
   2.8010 2  5E1             Rx   d 7 00 00 00 00 00 00 00
   2.8100 2  433             Rx   d 8 15 01 03 01 00 00 00 00
   2.8300 2  35B             Rx   d 8 0F 00 00 00 00 00 00 00
   2.8312 2  557             Rx   d 8 00 00 60 01 18 08 00 C9
   2.8324 2  470             Rx   d 8 80 00 C6 00 10 00 00 00
   2.8332 2  531             Rx   d 4 C3 00 50 93
   2.8342 2  571             Rx   d 6 AE 00 00 00 00 00
   2.8351 2  575             Rx   d 4 C7 20 00 00
   2.8361 2  621             Rx   d 7 00 08 80 FF 10 B6 30
   2.8393 2  635             Rx   d 3 C6 C6 30
   2.8477 2  63B             Rx   d 3 3A 4F 00
   2.8499 2  651             Rx   d 8 C0 33 51 AF 35 54 C0 00
   2.8549 2  658             Rx   d 8 70 00 00 0E 40 00 00 00
   2.8561 2  2C3             Rx   d 1 07
   2.8587 2  2C1             Rx   d 6 00 02 0D 00 02 00
   2.8600 2  351             Rx   d 8 01 88 FF 00 00 00 00 00
   2.8612 2  435             Rx   d 8 16 01 01 01 00 00 00 00
   2.8649 2  359             Rx   d 8 7F 89 FF 00 00 00 80 00
   2.8778 2  2A1             Rx   d 7 00 C0 00 8F FF FF 3F
   2.8798 2  470             Rx   d 8 80 00 C6 00 10 00 00 00
   2.8806 2  531             Rx   d 4 C3 00 60 A3
   2.8996 2  3E1             Rx   d 8 60 00 FF 00 FA 00 84 00
   2.9059 2  62F             Rx   d 4 02 80 6F 70
   2.9081 2  436             Rx   d 8 1A 01 05 01 00 00 00 00
   2.9300 2  35B             Rx   d 8 0F 00 00 00 00 00 00 00
   2.9312 2  655             Rx   d 8 00 00 E0 03 1C 08 00 C9
   2.9324 2  470             Rx   d 8 80 00 C6 00 10 00 00 00
   2.9332 2  531             Rx   d 4 C3 00 70 B3
   2.9348 2  621             Rx   d 7 00 08 80 FF 10 B6 30
   2.9499 2  651             Rx   d 8 C0 33 51 AF 35 54 C0 00
   2.9550 2  658             Rx   d 8 70 00 00 0E 40 00 00 00
   2.9562 2  65F             Rx   d 8 01 58 58 58 58 58 58 58
   2.9568 2  2C3             Rx   d 1 07
   2.9581 2  43A             Rx   d 8 0B 01 01 01 00 00 00 00
   2.9591 2  2C1             Rx   d 6 00 02 0D 00 02 00
   2.9604 2  351             Rx   d 8 01 88 FF 00 00 00 00 00
   2.9649 2  359             Rx   d 8 7F 89 FF 00 00 00 80 00
   2.9749 2  523             Rx   d 8 02 80 00 00 FF 03 00 00
   2.9796 2  470             Rx   d 8 80 00 C6 00 10 00 00 00
   2.9808 2  527             Rx   d 8 10 FF FF B0 79 FF FF 09
   2.9816 2  531             Rx   d 4 C3 00 80 43
   2.9996 2  3E1             Rx   d 8 60 00 FF 00 FA 00 84 00
   3.0008 2  3E3             Rx   d 8 FF FF FF 00 00 FE 00 FF
   3.0020 2  5E1             Rx   d 7 00 00 00 00 00 00 00
   3.0030 2  42B             Rx   d 6 13 01 00 00 00 00
   3.0100 2  Statistic: D 222 R 0 XD 0 XR 0 E 0 O 0 B 23.65%
   3.0300 2  35B             Rx   d 8 0F 00 00 00 00 00 00 00
   3.0307 2  653             Rx   d 3 81 08 40
   3.0320 2  470             Rx   d 8 80 00 C6 00 10 00 00 00
   3.0328 2  531             Rx   d 4 C3 00 90 53
   3.0336 2  575             Rx   d 4 C7 20 00 00
   3.0348 2  621             Rx   d 7 00 08 80 FF 10 B6 30
   3.0371 2  67D             Rx   d 3 3C 84 0A
   3.0382 2  635             Rx   d 3 C6 C6 30
   3.0499 2  433             Rx   d 8 15 01 03 01 00 00 00 00
   3.0510 2  651             Rx   d 8 C0 33 51 AF 35 54 C0 00
   3.0549 2  658             Rx   d 8 70 00 00 0E 40 00 00 00
   3.0561 2  2C3             Rx   d 1 07
   3.0577 2  66F             Rx   d 3 3A CF 00
   3.0588 2  2C1             Rx   d 6 00 02 0D 00 02 00
   3.0600 2  351             Rx   d 8 01 88 FF 00 00 00 00 00
   3.0649 2  359             Rx   d 8 7F 89 FF 00 00 00 80 00
   3.0700 2  6D8             Rx   d 8 3B 42 03 00 2D 00 03 00
   3.0794 2  470             Rx   d 8 80 00 C6 00 10 00 00 00
   3.0811 2  531             Rx   d 4 C3 00 A0 63
   3.0991 2  435             Rx   d 8 16 01 01 01 00 00 00 00
   3.1003 2  3E1             Rx   d 8 60 00 FF 00 FA 00 84 00
   3.1059 2  62F             Rx   d 4 02 80 6F 70
   3.1158 2  6DB             Rx   d 3 30 5D 07
   3.1288 2  66C             Rx   d 8 80 08 3C 43 38 03 FF BD
   3.1301 2  35B             Rx   d 8 0F 00 00 00 00 00 00 00
   3.1312 2  2A1             Rx   d 7 00 C0 00 8F FF FF 3F
   3.1324 2  470             Rx   d 8 80 00 C6 00 10 00 00 00
   3.1332 2  531             Rx   d 4 C3 00 B0 73
   3.1348 2  621             Rx   d 7 00 08 80 FF 10 B6 30
   3.1481 2  436             Rx   d 8 1A 01 05 01 00 00 00 00
   3.1499 2  651             Rx   d 8 C0 33 51 AF 35 54 C0 00
   3.1549 2  658             Rx   d 8 70 00 00 0E 40 00 00 00
   3.1562 2  65F             Rx   d 8 02 58 58 58 58 58 58 58
   3.1573 2  2C3             Rx   d 1 07
   3.1587 2  66C             Rx   d 5 C0 00 00 00 00
   3.1600 2  351             Rx   d 8 01 88 FF 00 00 00 00 00
   3.1610 2  2C1             Rx   d 6 00 02 0D 00 02 00
   3.1649 2  359             Rx   d 8 7F 89 FF 00 00 00 80 00
   3.1749 2  523             Rx   d 8 02 80 00 00 FF 03 00 00
   3.1794 2  470             Rx   d 8 80 00 C6 00 10 00 00 00
   3.1806 2  527             Rx   d 8 10 FF FF B0 79 FF FF 09
   3.1814 2  531             Rx   d 4 C3 00 C0 03
   3.1981 2  43A             Rx   d 8 0B 01 01 01 00 00 00 00
   3.1993 2  3E1             Rx   d 8 60 00 FF 00 FA 00 84 00
   3.2005 2  5E1             Rx   d 7 00 00 00 00 00 00 00
   3.2300 2  35B             Rx   d 8 0F 00 00 00 00 00 00 00
   3.2312 2  470             Rx   d 8 80 00 C6 00 10 00 00 00
   3.2320 2  531             Rx   d 4 C3 00 D0 13
   3.2328 2  575             Rx   d 4 C7 20 00 00
   3.2348 2  621             Rx   d 7 00 08 80 FF 10 B6 30
   3.2395 2  635             Rx   d 3 C6 C6 30
   3.2421 2  42B             Rx   d 6 13 01 00 00 00 00
   3.2499 2  651             Rx   d 8 C0 33 51 AF 35 54 C0 00
   3.2549 2  658             Rx   d 8 70 00 00 0E 40 00 00 00
   3.2573 2  2C3             Rx   d 1 07
   3.2596 2  2C1             Rx   d 6 00 02 0D 00 02 00
   3.2609 2  351             Rx   d 8 01 88 FF 00 00 00 00 00
   3.2617 2  5C1             Rx   d 4 14 00 0F 63
   3.2649 2  359             Rx   d 8 7F 89 FF 00 00 00 80 00
   3.2783 2  470             Rx   d 8 80 00 C6 00 10 00 00 00
   3.2796 2  531             Rx   d 4 C3 00 E0 23
   3.2899 2  433             Rx   d 8 15 01 03 01 00 00 00 00
   3.2983 2  3E1             Rx   d 8 60 00 FF 00 FA 00 84 00
   3.2996 2  5C1             Rx   d 4 14 00 0E 63
   3.3059 2  62F             Rx   d 4 02 80 6F 70
   3.3300 2  35B             Rx   d 8 0F 00 00 00 00 00 00 00
   3.3312 2  557             Rx   d 8 00 00 60 01 18 08 00 C9
   3.3324 2  470             Rx   d 8 80 00 C6 00 10 00 00 00
   3.3332 2  531             Rx   d 4 C3 00 F0 33
   3.3343 2  571             Rx   d 6 AE 00 00 00 00 00
   3.3353 2  621             Rx   d 7 00 08 80 FF 10 B6 30
   3.3391 2  435             Rx   d 8 16 01 01 01 00 00 00 00
   3.3499 2  651             Rx   d 8 C0 33 51 AF 35 54 C0 00
   3.3549 2  658             Rx   d 8 70 00 00 0E 40 00 00 00
   3.3563 2  65F             Rx   d 8 00 00 00 00 00 58 58 58
   3.3573 2  2C3             Rx   d 1 07
   3.3599 2  351             Rx   d 8 01 88 FF 00 00 00 00 00
   3.3621 2  2C1             Rx   d 6 00 02 0D 00 02 00
   3.3638 2  5C1             Rx   d 4 00 00 0E 63
   3.3650 2  359             Rx   d 8 7F 89 FF 00 00 00 80 00
   3.3749 2  523             Rx   d 8 02 80 00 00 FF 03 00 00
   3.3779 2  604             Rx   d 8 81 00 00 00 00 00 00 00
   3.3791 2  470             Rx   d 8 80 00 C6 00 10 00 00 00
   3.3799 2  531             Rx   d 4 C3 00 00 C3
   3.3811 2  527             Rx   d 8 10 FF FF B0 79 FF FF 09
   3.3823 2  5A3             Rx   d 8 08 7A 1A 32 88 07 03 00
   3.3836 2  661             Rx   d 8 83 00 00 00 00 00 00 00
   3.3847 2  507             Rx   d 6 00 00 00 00 00 00
   3.3857 2  5AF             Rx   d 5 FF FF FF FF FF
   3.3869 2  2A1             Rx   d 7 00 C0 00 8F FF FF 3F
   3.3881 2  5A1             Rx   d 8 CE 00 00 30 00 00 00 00
   3.3894 2  436             Rx   d 8 1A 01 05 01 00 00 00 00
   3.3982 2  3E1             Rx   d 8 60 00 FF 00 FA 00 84 00
   3.4001 2  5E1             Rx   d 7 00 00 00 00 00 00 00
   3.4009 2  5C1             Rx   d 4 14 00 0D 63
   3.4300 2  35B             Rx   d 8 0F 00 00 00 00 00 00 00
   3.4312 2  655             Rx   d 8 00 00 E0 03 1C 08 00 C9
   3.4324 2  470             Rx   d 8 80 00 C6 00 10 00 00 00
   3.4333 2  531             Rx   d 4 C3 00 10 D3
   3.4341 2  575             Rx   d 4 C7 20 00 00
   3.4352 2  621             Rx   d 7 00 08 80 FF 10 B6 30
   3.4382 2  43A             Rx   d 8 0B 01 01 01 00 00 00 00
   3.4390 2  635             Rx   d 3 C6 C6 30
   3.4398 2  63C             Rx   d 3 3B D5 01
   3.4480 2  66F             Rx   d 6 4A D6 02 01 00 22
   3.4499 2  651             Rx   d 8 C0 33 51 AF 35 54 C0 00
   3.4550 2  658             Rx   d 8 70 00 00 0E 40 00 00 00
   3.4573 2  2C3             Rx   d 1 07
   3.4596 2  2C1             Rx   d 6 00 02 0D 00 02 00
   3.4608 2  351             Rx   d 8 01 88 FF 00 00 00 00 00
   3.4617 2  5C1             Rx   d 4 14 00 0C 63
   3.4649 2  359             Rx   d 8 7F 89 FF 00 00 00 80 00
   3.4685 2  66F             Rx   d 8 80 4A 4A D4 02 00 00 47
   3.4782 2  470             Rx   d 8 80 00 C6 00 10 00 00 00
   3.4795 2  531             Rx   d 4 C3 00 20 E3
   3.4821 2  42B             Rx   d 6 13 01 00 00 00 00
   3.4883 2  66F             Rx   d 8 C0 00 04 00 00 80 0B 54
   3.4997 2  3E1             Rx   d 8 60 00 FF 00 FA 00 84 00
   3.5006 2  5C1             Rx   d 4 14 00 0B 63
   3.5060 2  62F             Rx   d 4 02 80 6F 70
   3.5085 2  66F             Rx   d 8 C1 65 6C 2E 20 73 65 7A
   3.5278 2  6D2             Rx   d 3 3A 14 00
   3.5289 2  66F             Rx   d 8 C2 6E 61 6D 01 04 81 0D
   3.5301 2  35B             Rx   d 8 0F 00 00 00 00 00 00 00
   3.5313 2  433             Rx   d 8 15 01 03 01 00 00 00 00
   3.5321 2  653             Rx   d 3 81 08 40
   3.5333 2  470             Rx   d 8 80 00 C6 00 10 00 00 00
   3.5342 2  531             Rx   d 4 C3 00 30 F3
   3.5352 2  621             Rx   d 7 00 08 80 FF 10 B6 30
   3.5420 2  665             Rx   d 7 81 00 00 00 F0 00 20
   3.5482 2  66F             Rx   d 8 C3 4B 61 76 65 6D 61 6E
   3.5499 2  651             Rx   d 8 C0 33 51 AF 35 54 C0 00
   3.5549 2  658             Rx   d 8 70 00 00 0E 40 00 00 00
   3.5563 2  65F             Rx   d 8 01 58 58 58 58 58 58 58
   3.5573 2  2C3             Rx   d 1 07
   3.5599 2  351             Rx   d 8 01 88 FF 00 00 00 00 00
   3.5610 2  2C1             Rx   d 6 00 02 0D 00 02 00
   3.5627 2  5C1             Rx   d 4 00 00 0B 63
   3.5649 2  359             Rx   d 8 7F 89 FF 00 00 00 80 00
   3.5684 2  66F             Rx   d 8 C4 6E 20 49 6E 67 6F 02
   3.5749 2  523             Rx   d 8 02 80 00 00 FF 03 00 00
   3.5782 2  470             Rx   d 8 80 00 C6 00 10 00 00 00
   3.5794 2  435             Rx   d 8 16 01 01 01 00 00 00 00
   3.5802 2  531             Rx   d 4 C3 00 40 83
   3.5814 2  527             Rx   d 8 10 FF FF B0 79 FF FF 09
   3.5883 2  66F             Rx   d 8 C5 04 81 0C 4B 6F 64 72
   3.5978 2  3E1             Rx   d 8 60 00 FF 00 FA 00 84 00
   3.5997 2  5E1             Rx   d 7 00 00 00 00 00 00 00
   3.6082 2  66F             Rx   d 8 C6 69 6B 20 48 79 6E 65
   3.6189 2  55B             Rx   d 1 80
   3.6283 2  66F             Rx   d 8 C7 6B 03 04 83 10 4B 6F
   3.6295 2  436             Rx   d 8 1A 01 05 01 00 00 00 00
   3.6307 2  35B             Rx   d 8 0F 00 00 00 00 00 00 00
   3.6320 2  470             Rx   d 8 80 00 C6 00 10 00 00 00
   3.6328 2  531             Rx   d 4 C3 00 50 93
   3.6336 2  575             Rx   d 4 C7 20 00 00
   3.6347 2  2A1             Rx   d 7 00 C0 00 8F FF FF 3F
   3.6358 2  621             Rx   d 7 00 08 80 FF 10 B6 30
   3.6403 2  635             Rx   d 3 C6 C6 30
   3.6482 2  66F             Rx   d 8 C8 65 70 66 20 48 61 6E
   3.6499 2  651             Rx   d 8 C0 33 51 AF 35 54 C0 00
   3.6549 2  658             Rx   d 8 70 00 00 0E 40 00 00 00
   3.6573 2  2C3             Rx   d 1 07
   3.6596 2  2C1             Rx   d 6 00 02 0D 00 02 00
   3.6609 2  351             Rx   d 8 01 88 FF 00 00 00 00 00
   3.6615 2  56F             Rx   d 2 B8 00
   3.6623 2  5C1             Rx   d 4 14 00 0A 63
   3.6649 2  359             Rx   d 8 7F 89 FF 00 00 00 80 00
   3.6685 2  66F             Rx   d 8 C9 73 2D 4A 6F 65 72 67
   3.6781 2  43A             Rx   d 8 0B 01 01 01 00 00 00 00
   3.6794 2  470             Rx   d 8 80 00 C6 00 10 00 00 00
   3.6802 2  531             Rx   d 4 C3 00 60 A3
   3.6874 2  67C             Rx   d 3 0A D5 02
   3.6977 2  3E1             Rx   d 8 60 00 FF 00 FA 00 84 00
   3.6991 2  5C1             Rx   d 4 00 00 0A 63
   3.7060 2  60E             Rx   d 2 08 01
   3.7068 2  62F             Rx   d 4 02 80 6F 70
   3.7223 2  42B             Rx   d 6 13 01 00 00 00 00
   3.7300 2  35B             Rx   d 8 0F 00 00 00 00 00 00 00
   3.7312 2  65D             Rx   d 8 00 00 00 00 F0 40 82 08
   3.7325 2  470             Rx   d 8 80 00 C6 00 10 00 00 00
   3.7333 2  531             Rx   d 4 C3 00 70 B3
   3.7348 2  621             Rx   d 7 00 08 80 FF 10 B6 30
   3.7499 2  651             Rx   d 8 C0 33 51 AF 35 54 C0 00
   3.7549 2  658             Rx   d 8 70 00 00 0E 40 00 00 00
   3.7562 2  65F             Rx   d 8 02 58 58 58 58 58 58 58
   3.7572 2  2C3             Rx   d 1 07
   3.7599 2  351             Rx   d 8 01 88 FF 00 00 00 00 00
   3.7610 2  2C1             Rx   d 6 00 02 0D 00 02 00
   3.7649 2  359             Rx   d 8 7F 89 FF 00 00 00 80 00
   3.7698 2  433             Rx   d 8 15 01 03 01 00 00 00 00
   3.7749 2  523             Rx   d 8 02 80 00 00 FF 03 00 00
   3.7787 2  470             Rx   d 8 80 00 C6 00 10 00 00 00
   3.7799 2  527             Rx   d 8 10 FF FF B0 79 FF FF 09
   3.7808 2  531             Rx   d 4 C3 00 80 43
   3.7976 2  3E1             Rx   d 8 60 00 FF 00 FA 00 84 00
   3.7988 2  3E3             Rx   d 8 FF FF FF 00 00 FE 00 FF
   3.8007 2  5E1             Rx   d 7 00 00 00 00 00 00 00
   3.8016 2  5C1             Rx   d 4 00 00 0A 63
   3.8191 2  435             Rx   d 8 16 01 01 01 00 00 00 00
   3.8300 2  35B             Rx   d 8 0F 00 00 00 00 00 00 00
   3.8312 2  557             Rx   d 8 00 00 60 01 18 08 00 C9
   3.8324 2  470             Rx   d 8 80 00 C6 00 10 00 00 00
   3.8332 2  531             Rx   d 4 C3 00 90 53
   3.8343 2  571             Rx   d 6 AE 00 00 00 00 00
   3.8351 2  575             Rx   d 4 C7 20 00 00
   3.8362 2  621             Rx   d 7 00 08 80 FF 10 B6 30
   3.8392 2  635             Rx   d 3 C6 C6 30
   3.8481 2  63B             Rx   d 6 3A 51 00 00 00 00
   3.8499 2  651             Rx   d 8 C0 33 51 AF 35 54 C0 00
   3.8549 2  658             Rx   d 8 70 00 00 0E 40 00 00 00
   3.8573 2  2C3             Rx   d 1 07
   3.8596 2  2C1             Rx   d 6 00 02 0D 00 02 00
   3.8608 2  351             Rx   d 8 01 88 FF 00 00 00 00 00
   3.8649 2  359             Rx   d 8 7F 89 FF 00 00 00 80 00
   3.8681 2  436             Rx   d 8 1A 01 05 01 00 00 00 00
   3.8692 2  66F             Rx   d 8 80 49 4A D4 02 00 00 47
   3.8777 2  2A1             Rx   d 7 00 C0 00 8F FF FF 3F
   3.8789 2  470             Rx   d 8 80 00 C6 00 10 00 00 00
   3.8798 2  531             Rx   d 4 C3 00 A0 63
   3.8880 2  66F             Rx   d 6 4A D6 02 01 00 22
   3.8974 2  3E1             Rx   d 8 60 00 FF 00 FA 00 84 00
   3.8991 2  5C1             Rx   d 4 00 00 0A 63
   3.9059 2  62F             Rx   d 4 02 80 6F 70
   3.9083 2  66F             Rx   d 8 C0 00 04 00 00 80 0B 54
   3.9181 2  43A             Rx   d 8 0B 01 01 01 00 00 00 00
   3.9282 2  66F             Rx   d 8 C1 65 6C 2E 20 73 65 7A
   3.9300 2  35B             Rx   d 8 0F 00 00 00 00 00 00 00
   3.9312 2  655             Rx   d 8 00 00 E0 03 1C 08 00 C9
   3.9324 2  470             Rx   d 8 80 00 C6 00 10 00 00 00
   3.9332 2  531             Rx   d 4 C3 00 B0 73
   3.9348 2  621             Rx   d 7 00 08 80 FF 10 B6 30
   3.9483 2  66F             Rx   d 8 C2 6E 61 6D 01 04 81 0C
   3.9499 2  651             Rx   d 8 C0 33 51 AF 35 54 C0 00
   3.9550 2  658             Rx   d 8 70 00 00 0E 40 00 00 00
   3.9563 2  65F             Rx   d 8 00 00 00 00 00 58 58 58
   3.9572 2  2C3             Rx   d 1 07
   3.9600 2  351             Rx   d 8 01 88 FF 00 00 00 00 00
   3.9610 2  2C1             Rx   d 6 00 02 0D 00 02 00
   3.9622 2  42B             Rx   d 6 13 01 00 00 00 00
   3.9649 2  359             Rx   d 8 7F 89 FF 00 00 00 80 00
   3.9683 2  66F             Rx   d 8 C3 4B 6F 64 72 69 6B 20
   3.9749 2  523             Rx   d 8 02 80 00 00 FF 03 00 00
   3.9782 2  470             Rx   d 8 80 00 C6 00 10 00 00 00
   3.9794 2  531             Rx   d 4 C3 00 C0 03
   3.9806 2  527             Rx   d 8 10 FF FF B0 79 FF FF 09
   3.9883 2  66F             Rx   d 8 C4 48 79 6E 65 6B 02 04
   3.9973 2  3E1             Rx   d 8 60 00 FF 00 FA 00 84 00
   4.0004 2  5E1             Rx   d 7 00 00 00 00 00 00 00
   4.0013 2  5C1             Rx   d 4 00 00 0A 63
   4.0083 2  66F             Rx   d 8 C5 81 10 4B 6F 65 70 66
   4.0098 2  433             Rx   d 8 15 01 03 01 00 00 00 00
   4.0100 2  Statistic: D 252 R 0 XD 0 XR 0 E 0 O 0 B 26.73%
   4.0282 2  66F             Rx   d 8 C6 20 48 61 6E 73 2D 4A
   4.0300 2  35B             Rx   d 8 0F 00 00 00 00 00 00 00
   4.0307 2  653             Rx   d 3 81 08 40
   4.0320 2  470             Rx   d 8 80 00 C6 00 10 00 00 00
   4.0328 2  531             Rx   d 4 C3 00 D0 13
   4.0336 2  575             Rx   d 4 C7 20 00 00
   4.0348 2  621             Rx   d 7 00 08 80 FF 10 B6 30
   4.0370 2  67D             Rx   d 3 3C 8F 00
   4.0382 2  635             Rx   d 3 C6 C6 30
   4.0483 2  66F             Rx   d 8 C7 6F 65 72 67 03 04 83
   4.0499 2  651             Rx   d 8 C0 33 51 AF 35 54 C0 00
   4.0549 2  658             Rx   d 8 70 00 00 0E 40 00 00 00
   4.0572 2  2C3             Rx   d 1 07
   4.0587 2  2C1             Rx   d 6 00 02 0D 00 02 00
   4.0599 2  435             Rx   d 8 16 01 01 01 00 00 00 00
   4.0611 2  351             Rx   d 8 01 88 FF 00 00 00 00 00
   4.0649 2  359             Rx   d 8 7F 89 FF 00 00 00 80 00
   4.0683 2  66F             Rx   d 8 C8 0C 4B 6F 6C 69 6E 73
   4.0698 2  6D8             Rx   d 8 3B 43 38 07 FF FA 06 00
   4.0782 2  470             Rx   d 8 80 00 C6 00 10 00 00 00
   4.0794 2  531             Rx   d 4 C3 00 E0 23
   4.0882 2  66F             Rx   d 7 C9 6B 79 20 4A 61 6E
   4.0972 2  3E1             Rx   d 8 60 00 FF 00 FA 00 84 00
   4.0993 2  5C1             Rx   d 4 00 00 0A 63
   4.1059 2  62F             Rx   d 4 02 80 6F 70
   4.1074 2  67C             Rx   d 3 0A D5 02
   4.1086 2  436             Rx   d 8 1A 01 05 01 00 00 00 00
   4.1150 2  6DB             Rx   d 6 30 5E 00 00 00 01
   4.1283 2  66C             Rx   d 3 3C 44 0A
   4.1294 2  2A1             Rx   d 7 00 C0 00 8F FF FF 3F
   4.1306 2  35B             Rx   d 8 0F 00 00 00 00 00 00 00
   4.1319 2  470             Rx   d 8 80 00 C6 00 10 00 00 00
   4.1327 2  531             Rx   d 4 C3 00 F0 33
   4.1348 2  621             Rx   d 7 00 08 80 FF 10 B6 30
   4.1499 2  651             Rx   d 8 C0 33 51 AF 35 54 C0 00
   4.1549 2  658             Rx   d 8 70 00 00 0E 40 00 00 00
   4.1562 2  65F             Rx   d 8 01 58 58 58 58 58 58 58
   4.1570 2  2C3             Rx   d 1 07
   4.1582 2  43A             Rx   d 8 0B 01 01 01 00 00 00 00
   4.1596 2  2C1             Rx   d 6 00 02 0D 00 02 00
   4.1608 2  351             Rx   d 8 01 88 FF 00 00 00 00 00
   4.1649 2  359             Rx   d 8 7F 89 FF 00 00 00 80 00
   4.1749 2  523             Rx   d 8 02 80 00 00 FF 03 00 00
   4.1782 2  470             Rx   d 8 80 00 C6 00 10 00 00 00
   4.1799 2  527             Rx   d 8 10 FF FF B0 79 FF FF 09
   4.1818 2  531             Rx   d 4 C3 00 00 C3
   4.1971 2  3E1             Rx   d 8 60 00 FF 00 FA 00 84 00
   4.1983 2  5E1             Rx   d 7 00 00 00 00 00 00 00
   4.2021 2  42B             Rx   d 6 13 01 00 00 00 00
   4.2300 2  35B             Rx   d 8 0F 00 00 00 00 00 00 00
   4.2312 2  470             Rx   d 8 80 00 C6 00 10 00 00 00
   4.2321 2  531             Rx   d 4 C3 00 10 D3
   4.2329 2  575             Rx   d 4 C7 20 00 00
   4.2348 2  621             Rx   d 7 00 08 80 FF 10 B6 30
   4.2397 2  635             Rx   d 3 C6 C6 30
   4.2498 2  433             Rx   d 8 15 01 03 01 00 00 00 00
   4.2509 2  651             Rx   d 8 C0 33 51 AF 35 54 C0 00
   4.2550 2  658             Rx   d 8 70 00 00 0E 40 00 00 00
   4.2571 2  2C3             Rx   d 1 07
   4.2586 2  2C1             Rx   d 6 00 02 0D 00 02 00
   4.2599 2  351             Rx   d 8 01 88 FF 00 00 00 00 00
   4.2649 2  359             Rx   d 8 7F 89 FF 00 00 00 80 00
   4.2782 2  470             Rx   d 8 80 00 C6 00 10 00 00 00
   4.2795 2  531             Rx   d 4 C3 00 20 E3
   4.2968 2  3E1             Rx   d 8 60 00 FF 00 FA 00 84 00
   4.2991 2  435             Rx   d 8 16 01 01 01 00 00 00 00
   4.3059 2  62F             Rx   d 4 02 80 6F 70
   4.3300 2  35B             Rx   d 8 0F 00 00 00 00 00 00 00
   4.3312 2  557             Rx   d 8 00 00 60 01 18 08 00 C9
   4.3324 2  470             Rx   d 8 80 00 C6 00 10 00 00 00
   4.3332 2  531             Rx   d 4 C3 00 30 F3
   4.3343 2  571             Rx   d 6 AE 00 00 00 00 00
   4.3353 2  621             Rx   d 7 00 08 80 FF 10 B6 30
   4.3480 2  436             Rx   d 8 1A 01 05 01 00 00 00 00
   4.3499 2  651             Rx   d 8 C0 33 51 AF 35 54 C0 00
   4.3549 2  658             Rx   d 8 70 00 00 0E 40 00 00 00
   4.3562 2  65F             Rx   d 8 02 58 58 58 58 58 58 58
   4.3578 2  2C3             Rx   d 1 07
   4.3599 2  351             Rx   d 8 01 88 FF 00 00 00 00 00
   4.3626 2  2C1             Rx   d 6 00 02 0D 00 02 00
   4.3649 2  359             Rx   d 8 7F 89 FF 00 00 00 80 00
   4.3749 2  523             Rx   d 8 02 80 00 00 FF 03 00 00
   4.3778 2  604             Rx   d 8 81 00 00 00 00 00 00 00
   4.3790 2  470             Rx   d 8 80 00 C6 00 10 00 00 00
   4.3798 2  531             Rx   d 4 C3 00 40 83
   4.3810 2  527             Rx   d 8 10 FF FF B0 79 FF FF 09
   4.3822 2  5A3             Rx   d 8 08 7A 1A 32 88 07 03 00
   4.3835 2  661             Rx   d 8 83 00 00 00 00 00 00 00
   4.3846 2  507             Rx   d 6 00 00 00 00 00 00
   4.3856 2  5AF             Rx   d 5 FF FF FF FF FF
   4.3868 2  2A1             Rx   d 7 00 C0 00 8F FF FF 3F
   4.3880 2  5A1             Rx   d 8 CE 00 00 30 00 00 00 00
   4.3967 2  3E1             Rx   d 8 60 00 FF 00 FA 00 84 00
   4.3979 2  5E1             Rx   d 7 00 00 00 00 00 00 00
   4.3991 2  43A             Rx   d 8 0B 01 01 01 00 00 00 00
   4.4300 2  35B             Rx   d 8 0F 00 00 00 00 00 00 00
   4.4312 2  655             Rx   d 8 00 00 E0 03 1C 08 00 C9
   4.4324 2  470             Rx   d 8 80 00 C6 00 10 00 00 00
   4.4332 2  531             Rx   d 4 C3 00 50 93
   4.4341 2  575             Rx   d 4 C7 20 00 00
   4.4351 2  621             Rx   d 7 00 08 80 FF 10 B6 30
   4.4382 2  635             Rx   d 3 C6 C6 30
   4.4394 2  63C             Rx   d 3 3B D6 FF
   4.4421 2  42B             Rx   d 6 13 01 00 00 00 00
   4.4499 2  651             Rx   d 8 C0 33 51 AF 35 54 C0 00
   4.4550 2  658             Rx   d 8 70 00 00 0E 40 00 00 00
   4.4573 2  2C3             Rx   d 1 07
   4.4588 2  2C1             Rx   d 6 00 02 0D 00 02 00
   4.4600 2  351             Rx   d 8 01 88 FF 00 00 00 00 00
   4.4649 2  359             Rx   d 8 7F 89 FF 00 00 00 80 00
   4.4782 2  470             Rx   d 8 80 00 C6 00 10 00 00 00
   4.4790 2  531             Rx   d 4 C3 00 60 A3
   4.4908 2  433             Rx   d 8 15 01 03 01 00 00 00 00
   4.4964 2  3E1             Rx   d 8 60 00 FF 00 FA 00 84 00
   4.5059 2  62F             Rx   d 4 02 80 6F 70
   4.5278 2  6D2             Rx   d 3 3A 17 63
   4.5300 2  35B             Rx   d 8 0F 00 00 00 00 00 00 00
   4.5307 2  653             Rx   d 3 81 08 40
   4.5320 2  470             Rx   d 8 80 00 C6 00 10 00 00 00
   4.5328 2  531             Rx   d 4 C3 00 70 B3
   4.5348 2  621             Rx   d 7 00 08 80 FF 10 B6 30
   4.5392 2  435             Rx   d 8 16 01 01 01 00 00 00 00
   4.5420 2  665             Rx   d 7 81 00 00 00 F0 00 20
   4.5499 2  651             Rx   d 8 C0 33 51 AF 35 54 C0 00
   4.5549 2  658             Rx   d 8 70 00 00 0E 40 00 00 00
   4.5562 2  65F             Rx   d 8 00 00 00 00 00 58 58 58
   4.5576 2  2C3             Rx   d 1 07
   4.5591 2  2C1             Rx   d 6 00 02 0D 00 02 00
   4.5603 2  351             Rx   d 8 01 88 FF 00 00 00 00 00
   4.5649 2  359             Rx   d 8 7F 89 FF 00 00 00 80 00
   4.5749 2  523             Rx   d 8 02 80 00 00 FF 03 00 00
   4.5782 2  470             Rx   d 8 80 00 C6 00 10 00 00 00
   4.5791 2  531             Rx   d 4 C3 00 80 43
   4.5803 2  527             Rx   d 8 10 FF FF B0 79 FF FF 09
   4.5880 2  436             Rx   d 8 1A 01 05 01 00 00 00 00
   4.5964 2  3E1             Rx   d 8 60 00 FF 00 FA 00 84 00
   4.5977 2  3E3             Rx   d 8 FF FF FF 00 00 FE 00 FF
   4.5988 2  5E1             Rx   d 7 00 00 00 00 00 00 00
   4.6189 2  55B             Rx   d 1 80
   4.6300 2  35B             Rx   d 8 0F 00 00 00 00 00 00 00
   4.6311 2  2A1             Rx   d 7 00 C0 00 8F FF FF 3F
   4.6323 2  470             Rx   d 8 80 00 C6 00 10 00 00 00
   4.6331 2  531             Rx   d 4 C3 00 90 53
   4.6340 2  575             Rx   d 4 C7 20 00 00
   4.6351 2  621             Rx   d 7 00 08 80 FF 10 B6 30
   4.6382 2  43A             Rx   d 8 0B 01 01 01 00 00 00 00
   4.6389 2  635             Rx   d 3 C6 C6 30
   4.6499 2  651             Rx   d 8 C0 33 51 AF 35 54 C0 00
   4.6550 2  658             Rx   d 8 70 00 00 0E 40 00 00 00
   4.6575 2  2C3             Rx   d 1 07
   4.6590 2  2C1             Rx   d 6 00 02 0D 00 02 00
   4.6602 2  351             Rx   d 8 01 88 FF 00 00 00 00 00
   4.6608 2  56F             Rx   d 2 B8 00
   4.6649 2  359             Rx   d 8 7F 89 FF 00 00 00 80 00
   4.6782 2  470             Rx   d 8 80 00 C6 00 10 00 00 00
   4.6790 2  531             Rx   d 4 C3 00 A0 63
   4.6821 2  42B             Rx   d 6 13 01 00 00 00 00
   4.6963 2  3E1             Rx   d 8 60 00 FF 00 FA 00 84 00
   4.7059 2  60E             Rx   d 2 08 01
   4.7068 2  62F             Rx   d 4 02 80 6F 70
   4.7297 2  433             Rx   d 8 15 01 03 01 00 00 00 00
   4.7310 2  35B             Rx   d 8 0F 00 00 00 00 00 00 00
   4.7322 2  65D             Rx   d 8 00 00 00 00 F0 40 02 09
   4.7335 2  470             Rx   d 8 80 00 C6 00 10 00 00 00
   4.7343 2  531             Rx   d 4 C3 00 B0 73
   4.7353 2  621             Rx   d 7 00 08 80 FF 10 B6 30
   4.7499 2  651             Rx   d 8 C0 33 51 AF 35 54 C0 00
   4.7550 2  658             Rx   d 8 70 00 00 0E 40 00 00 00
   4.7562 2  65F             Rx   d 8 01 58 58 58 58 58 58 58
   4.7575 2  2C3             Rx   d 1 07
   4.7590 2  2C1             Rx   d 6 00 02 0D 00 02 00
   4.7603 2  351             Rx   d 8 01 88 FF 00 00 00 00 00
   4.7649 2  359             Rx   d 8 7F 89 FF 00 00 00 80 00
   4.7749 2  523             Rx   d 8 02 80 00 00 FF 03 00 00
   4.7788 2  470             Rx   d 8 80 00 C6 00 10 00 00 00
   4.7800 2  435             Rx   d 8 16 01 01 01 00 00 00 00
   4.7812 2  527             Rx   d 8 10 FF FF B0 79 FF FF 09
   4.7821 2  531             Rx   d 4 C3 00 C0 03
   4.7961 2  3E1             Rx   d 8 60 00 FF 00 FA 00 84 00
   4.7973 2  5E1             Rx   d 7 00 00 00 00 00 00 00
   4.8287 2  436             Rx   d 8 1A 01 05 01 00 00 00 00
   4.8300 2  35B             Rx   d 8 0F 00 00 00 00 00 00 00
   4.8312 2  557             Rx   d 8 00 00 60 01 18 08 00 C9
   4.8324 2  470             Rx   d 8 80 00 C6 00 10 00 00 00
   4.8333 2  531             Rx   d 4 C3 00 D0 13
   4.8343 2  571             Rx   d 6 AE 00 00 00 00 00
   4.8351 2  575             Rx   d 4 C7 20 00 00
   4.8362 2  621             Rx   d 7 00 08 80 FF 10 B6 30
   4.8384 2  635             Rx   d 3 C6 C6 30
   4.8480 2  63B             Rx   d 5 3A 56 02 E2 00
   4.8499 2  651             Rx   d 8 C0 33 51 AF 35 54 C0 00
   4.8550 2  658             Rx   d 8 70 00 00 0E 40 00 00 00
   4.8576 2  2C3             Rx   d 1 07
   4.8584 2  66F             Rx   d 4 3A D0 00 03
   4.8594 2  2C1             Rx   d 6 00 02 0D 00 02 00
   4.8607 2  351             Rx   d 8 01 88 FF 00 00 00 00 00
   4.8649 2  359             Rx   d 8 7F 89 FF 00 00 00 80 00
   4.8776 2  2A1             Rx   d 7 00 C0 00 8F FF FF 3F
   4.8788 2  43A             Rx   d 8 0B 01 01 01 00 00 00 00
   4.8801 2  470             Rx   d 8 80 00 C6 00 10 00 00 00
   4.8809 2  531             Rx   d 4 C3 00 E0 23
   4.8960 2  3E1             Rx   d 8 60 00 FF 00 FA 00 84 00
   4.9059 2  62F             Rx   d 4 02 80 6F 70
   4.9223 2  42B             Rx   d 6 13 01 00 00 00 00
   4.9300 2  35B             Rx   d 8 0F 00 00 00 00 00 00 00
   4.9312 2  655             Rx   d 8 00 00 E0 03 1C 08 00 C9
   4.9324 2  470             Rx   d 8 80 00 C6 00 10 00 00 00
   4.9332 2  531             Rx   d 4 C3 00 F0 33
   4.9348 2  621             Rx   d 7 00 08 80 FF 10 B6 30
   4.9499 2  651             Rx   d 8 C0 33 51 AF 35 54 C0 00
   4.9550 2  658             Rx   d 8 70 00 00 0E 40 00 00 00
   4.9562 2  65F             Rx   d 8 02 58 58 58 58 58 58 58
   4.9594 2  2C1             Rx   d 6 00 02 0D 00 02 00
   4.9606 2  351             Rx   d 8 01 88 FF 00 00 00 00 00
   4.9616 2  2C3             Rx   d 1 07
   4.9649 2  359             Rx   d 8 7F 89 FF 00 00 00 80 00
   4.9697 2  433             Rx   d 8 15 01 03 01 00 00 00 00
   4.9749 2  523             Rx   d 8 02 80 00 00 FF 03 00 00
   4.9782 2  470             Rx   d 8 80 00 C6 00 10 00 00 00
   4.9790 2  531             Rx   d 4 C3 00 00 C3
   4.9802 2  527             Rx   d 8 10 FF FF B0 79 FF FF 09
   4.9958 2  3E1             Rx   d 8 60 00 FF 00 FA 00 84 00
   4.9970 2  5E1             Rx   d 7 00 00 00 00 00 00 00
   5.0100 2  Statistic: D 223 R 0 XD 0 XR 0 E 0 O 0 B 23.76%
   5.0192 2  435             Rx   d 8 16 01 01 01 00 00 00 00
   5.0300 2  35B             Rx   d 8 0F 00 00 00 00 00 00 00
   5.0307 2  653             Rx   d 3 81 08 40
   5.0320 2  470             Rx   d 8 80 00 C6 00 10 00 00 00
   5.0328 2  531             Rx   d 4 C3 00 10 D3
   5.0336 2  575             Rx   d 4 C7 20 00 00
   5.0348 2  621             Rx   d 7 00 08 80 FF 10 B6 30
   5.0371 2  67D             Rx   d 5 3C 90 00 FF FF
   5.0381 2  635             Rx   d 3 C6 C6 30
   5.0499 2  651             Rx   d 8 C0 33 51 AF 35 54 C0 00
   5.0550 2  658             Rx   d 8 70 00 00 0E 40 00 00 00
   5.0578 2  2C3             Rx   d 1 07
   5.0593 2  2C1             Rx   d 6 00 02 0D 00 02 00
   5.0605 2  351             Rx   d 8 01 88 FF 00 00 00 00 00
   5.0649 2  359             Rx   d 8 7F 89 FF 00 00 00 80 00
   5.0680 2  436             Rx   d 8 1A 01 05 01 00 00 00 00
   5.0692 2  6D8             Rx   d 3 3B 44 0A
   5.0782 2  470             Rx   d 8 80 00 C6 00 10 00 00 00
   5.0790 2  531             Rx   d 4 C3 00 20 E3
   5.0958 2  3E1             Rx   d 8 60 00 FF 00 FA 00 84 00
   5.1059 2  62F             Rx   d 4 02 80 6F 70
   5.1132 2  6DB             Rx   d 4 30 61 00 00
   5.1182 2  43A             Rx   d 8 0B 01 01 01 00 00 00 00
   5.1281 2  66C             Rx   d 3 3C 4E 1E
   5.1293 2  2A1             Rx   d 7 00 C0 00 8F FF FF 3F
   5.1305 2  35B             Rx   d 8 0F 00 00 00 00 00 00 00
   5.1318 2  470             Rx   d 8 80 00 C6 00 10 00 00 00
   5.1326 2  531             Rx   d 4 C3 00 30 F3
   5.1348 2  621             Rx   d 7 00 08 80 FF 10 B6 30
   5.1499 2  651             Rx   d 8 C0 33 51 AF 35 54 C0 00
   5.1549 2  658             Rx   d 8 70 00 00 0E 40 00 00 00
   5.1562 2  65F             Rx   d 8 00 00 00 00 00 58 58 58
   5.1579 2  2C3             Rx   d 1 07
   5.1594 2  2C1             Rx   d 6 00 02 0D 00 02 00
   5.1606 2  351             Rx   d 8 01 88 FF 00 00 00 00 00
   5.1621 2  42B             Rx   d 6 13 01 00 00 00 00
   5.1649 2  359             Rx   d 8 7F 89 FF 00 00 00 80 00
   5.1749 2  523             Rx   d 8 02 80 00 00 FF 03 00 00
   5.1782 2  470             Rx   d 8 80 00 C6 00 10 00 00 00
   5.1790 2  531             Rx   d 4 C3 00 40 83
   5.1802 2  527             Rx   d 8 10 FF FF B0 79 FF FF 09
   5.1956 2  3E1             Rx   d 8 60 00 FF 00 FA 00 84 00
   5.1967 2  5E1             Rx   d 7 00 00 00 00 00 00 00
   5.2097 2  433             Rx   d 8 15 01 03 01 00 00 00 00
   5.2300 2  35B             Rx   d 8 0F 00 00 00 00 00 00 00
   5.2312 2  470             Rx   d 8 80 00 C6 00 10 00 00 00
   5.2320 2  531             Rx   d 4 C3 00 50 93
   5.2328 2  575             Rx   d 4 C7 20 00 00
   5.2348 2  621             Rx   d 7 00 08 80 FF 10 B6 30
   5.2387 2  635             Rx   d 3 C6 C6 30
   5.2499 2  651             Rx   d 8 C0 33 51 AF 35 54 C0 00
   5.2550 2  658             Rx   d 8 70 00 00 0E 40 00 00 00
   5.2579 2  2C3             Rx   d 1 07
   5.2592 2  435             Rx   d 8 16 01 01 01 00 00 00 00
   5.2602 2  2C1             Rx   d 6 00 02 0D 00 02 00
   5.2614 2  351             Rx   d 8 01 88 FF 00 00 00 00 00
   5.2649 2  359             Rx   d 8 7F 89 FF 00 00 00 80 00
   5.2782 2  470             Rx   d 8 80 00 C6 00 10 00 00 00
   5.2806 2  531             Rx   d 4 C3 00 60 A3
   5.2955 2  3E1             Rx   d 8 60 00 FF 00 FA 00 84 00
   5.3058 2  62F             Rx   d 4 02 80 6F 70
   5.3079 2  436             Rx   d 8 1A 01 05 01 00 00 00 00
   5.3300 2  35B             Rx   d 8 0F 00 00 00 00 00 00 00
   5.3312 2  557             Rx   d 8 00 00 60 01 18 08 00 C9
   5.3324 2  470             Rx   d 8 80 00 C6 00 10 00 00 00
   5.3332 2  531             Rx   d 4 C3 00 70 B3
   5.3343 2  571             Rx   d 6 AE 00 00 00 00 00
   5.3353 2  621             Rx   d 7 00 08 80 FF 10 B6 30
   5.3499 2  651             Rx   d 8 C0 33 51 AF 35 54 C0 00
   5.3550 2  658             Rx   d 8 70 00 00 0E 40 00 00 00
   5.3561 2  65F             Rx   d 8 01 58 58 58 58 58 58 58
   5.3582 2  43A             Rx   d 8 0B 01 01 01 00 00 00 00
   5.3587 2  2C3             Rx   d 1 07
   5.3598 2  2C1             Rx   d 6 00 02 0D 00 02 00
   5.3610 2  351             Rx   d 8 01 88 FF 00 00 00 00 00
   5.3649 2  359             Rx   d 8 7F 89 FF 00 00 00 80 00
   5.3749 2  523             Rx   d 8 02 80 00 00 FF 03 00 00
   5.3777 2  604             Rx   d 8 81 00 00 00 00 00 00 00
   5.3789 2  470             Rx   d 8 80 00 C6 00 10 00 00 00
   5.3798 2  531             Rx   d 4 C3 00 80 43
   5.3810 2  527             Rx   d 8 10 FF FF B0 79 FF FF 09
   5.3819 2  5AF             Rx   d 5 FF FF FF FF FF
   5.3832 2  661             Rx   d 8 83 00 00 00 00 00 00 00
   5.3843 2  507             Rx   d 6 00 00 00 00 00 00
   5.3856 2  5A1             Rx   d 8 CE 00 00 30 00 00 00 00
   5.3867 2  2A1             Rx   d 7 00 C0 00 8F FF FF 3F
   5.3880 2  5A3             Rx   d 8 08 7A 1A 32 88 07 03 00
   5.3953 2  3E1             Rx   d 8 60 00 FF 00 FA 00 84 00
   5.3966 2  3E3             Rx   d 8 FF FF FF 00 00 FE 00 FF
   5.3977 2  5E1             Rx   d 7 00 00 00 00 00 00 00
   5.4021 2  42B             Rx   d 6 13 01 00 00 00 00
   5.4300 2  35B             Rx   d 8 0F 00 00 00 00 00 00 00
   5.4312 2  655             Rx   d 8 00 00 E0 03 1C 08 00 C9
   5.4324 2  470             Rx   d 8 80 00 C6 00 10 00 00 00
   5.4333 2  531             Rx   d 4 C3 00 90 53
   5.4341 2  575             Rx   d 4 C7 20 00 00
   5.4352 2  621             Rx   d 7 00 08 80 FF 10 B6 30
   5.4382 2  635             Rx   d 3 C6 C6 30
   5.4397 2  63C             Rx   d 6 3B D7 FF FF FF FF
   5.4496 2  433             Rx   d 8 15 01 03 01 00 00 00 00
   5.4508 2  651             Rx   d 8 C0 33 51 AF 35 54 C0 00
   5.4550 2  658             Rx   d 8 70 00 00 0E 40 00 00 00
   5.4581 2  2C3             Rx   d 1 07
   5.4596 2  2C1             Rx   d 6 00 02 0D 00 02 00
   5.4608 2  351             Rx   d 8 01 88 FF 00 00 00 00 00
   5.4623 2  5C1             Rx   d 4 14 00 09 63
   5.4649 2  359             Rx   d 8 7F 89 FF 00 00 00 80 00
   5.4782 2  470             Rx   d 8 80 00 C6 00 10 00 00 00
   5.4790 2  531             Rx   d 4 C3 00 A0 63
   5.4952 2  3E1             Rx   d 8 60 00 FF 00 FA 00 84 00
   5.4992 2  435             Rx   d 8 16 01 01 01 00 00 00 00
   5.5005 2  5C1             Rx   d 4 28 00 09 63
   5.5058 2  62F             Rx   d 4 02 80 6F 70
   5.5278 2  6D2             Rx   d 3 3A 19 01
   5.5300 2  35B             Rx   d 8 0F 00 00 00 00 00 00 00
   5.5307 2  653             Rx   d 3 81 08 40
   5.5320 2  470             Rx   d 8 80 00 C6 00 10 00 00 00
   5.5328 2  531             Rx   d 4 C3 00 B0 73
   5.5348 2  621             Rx   d 7 00 08 80 FF 10 B6 30
   5.5420 2  665             Rx   d 7 81 00 00 00 F0 00 20
   5.5479 2  436             Rx   d 8 1A 01 05 01 00 00 00 00
   5.5499 2  651             Rx   d 8 C0 33 51 AF 35 54 C0 00
   5.5550 2  658             Rx   d 8 70 00 00 0E 40 00 00 00
   5.5561 2  65F             Rx   d 8 02 58 58 58 58 58 58 58
   5.5582 2  2C3             Rx   d 1 07
   5.5597 2  2C1             Rx   d 6 00 02 0D 00 02 00
   5.5609 2  351             Rx   d 8 01 88 FF 00 00 00 00 00
   5.5625 2  5C1             Rx   d 4 00 00 09 63
   5.5649 2  359             Rx   d 8 7F 89 FF 00 00 00 80 00
   5.5749 2  523             Rx   d 8 02 80 00 00 FF 03 00 00
   5.5782 2  470             Rx   d 8 80 00 C6 00 10 00 00 00
   5.5790 2  531             Rx   d 4 C3 00 C0 03
   5.5802 2  527             Rx   d 8 10 FF FF B0 79 FF FF 09
   5.5950 2  3E1             Rx   d 8 60 00 FF 00 FA 00 84 00
   5.5962 2  5E1             Rx   d 7 00 00 00 00 00 00 00
   5.5982 2  43A             Rx   d 8 0B 01 01 01 00 00 00 00
   5.6189 2  55B             Rx   d 1 80
   5.6283 2  66F             Rx   d 8 80 4B 4A D4 02 00 00 47
   5.6296 2  2A1             Rx   d 7 00 C0 00 8F FF FF 3F
   5.6308 2  35B             Rx   d 8 0F 00 00 00 00 00 00 00
   5.6321 2  470             Rx   d 8 80 00 C6 00 10 00 00 00
   5.6329 2  531             Rx   d 4 C3 00 D0 13
   5.6337 2  575             Rx   d 4 C7 20 00 00
   5.6348 2  621             Rx   d 7 00 08 80 FF 10 B6 30
   5.6383 2  635             Rx   d 3 C6 C6 30
   5.6421 2  42B             Rx   d 6 13 01 00 00 00 00
   5.6480 2  66F             Rx   d 6 4A D6 02 01 00 22
   5.6499 2  651             Rx   d 8 C0 33 51 AF 35 54 C0 00
   5.6550 2  658             Rx   d 8 70 00 00 0E 40 00 00 00
   5.6583 2  2C3             Rx   d 1 07
   5.6592 2  56F             Rx   d 2 B8 00
   5.6604 2  351             Rx   d 8 01 88 FF 00 00 00 00 00
   5.6614 2  2C1             Rx   d 6 00 02 0D 00 02 00
   5.6626 2  5C1             Rx   d 4 00 00 09 63
   5.6649 2  359             Rx   d 8 7F 89 FF 00 00 00 80 00
   5.6684 2  66F             Rx   d 8 C0 00 04 00 00 80 0B 54
   5.6782 2  470             Rx   d 8 80 00 C6 00 10 00 00 00
   5.6790 2  531             Rx   d 4 C3 00 E0 23
   5.6883 2  66F             Rx   d 8 C1 65 6C 2E 20 73 65 7A
   5.6896 2  433             Rx   d 8 15 01 03 01 00 00 00 00
   5.6948 2  3E1             Rx   d 8 60 00 FF 00 FA 00 84 00
   5.7059 2  60E             Rx   d 2 08 01
   5.7067 2  62F             Rx   d 4 02 80 6F 70
   5.7083 2  66F             Rx   d 8 C2 6E 61 6D 01 04 81 10
   5.7283 2  66F             Rx   d 8 C3 4B 6F 65 70 66 20 48
   5.7300 2  35B             Rx   d 8 0F 00 00 00 00 00 00 00
   5.7312 2  65D             Rx   d 8 00 00 00 00 F0 40 82 09
   5.7324 2  470             Rx   d 8 80 00 C6 00 10 00 00 00
   5.7333 2  531             Rx   d 4 C3 00 F0 33
   5.7348 2  621             Rx   d 7 00 08 80 FF 10 B6 30
   5.7392 2  435             Rx   d 8 16 01 01 01 00 00 00 00
   5.7483 2  66F             Rx   d 8 C4 61 6E 73 2D 4A 6F 65
   5.7499 2  651             Rx   d 8 C0 33 51 AF 35 54 C0 00
   5.7550 2  658             Rx   d 8 70 00 00 0E 40 00 00 00
   5.7562 2  65F             Rx   d 8 00 00 00 00 00 58 58 58
   5.7584 2  2C3             Rx   d 1 07
   5.7600 2  351             Rx   d 8 01 88 FF 00 00 00 00 00
   5.7610 2  2C1             Rx   d 6 00 02 0D 00 02 00
   5.7627 2  5C1             Rx   d 4 00 00 09 63
   5.7649 2  359             Rx   d 8 7F 89 FF 00 00 00 80 00
   5.7684 2  66F             Rx   d 8 C5 72 67 02 04 81 0C 4B
   5.7749 2  523             Rx   d 8 02 80 00 00 FF 03 00 00
   5.7782 2  470             Rx   d 8 80 00 C6 00 10 00 00 00
   5.7791 2  531             Rx   d 4 C3 00 00 C3
   5.7803 2  527             Rx   d 8 10 FF FF B0 79 FF FF 09
   5.7879 2  436             Rx   d 8 1A 01 05 01 00 00 00 00
   5.7890 2  66F             Rx   d 8 C6 6F 6C 69 6E 73 6B 79
   5.7947 2  3E1             Rx   d 8 60 00 FF 00 FA 00 84 00
   5.7959 2  5E1             Rx   d 7 00 00 00 00 00 00 00
   5.8083 2  66F             Rx   d 8 C7 20 4A 61 6E 03 04 83
   5.8283 2  66F             Rx   d 8 C8 0E 4B 6F 6C C3 AD 6E
   5.8300 2  35B             Rx   d 8 0F 00 00 00 00 00 00 00
   5.8312 2  557             Rx   d 8 00 00 60 01 18 08 00 C9
   5.8324 2  470             Rx   d 8 80 00 C6 00 10 00 00 00
   5.8332 2  531             Rx   d 4 C3 00 10 D3
   5.8343 2  571             Rx   d 6 AE 00 00 00 00 00
   5.8351 2  575             Rx   d 4 C7 20 00 00
   5.8362 2  621             Rx   d 7 00 08 80 FF 10 B6 30
   5.8382 2  43A             Rx   d 8 0B 01 01 01 00 00 00 00
   5.8389 2  635             Rx   d 3 C6 C6 30
   5.8481 2  63B             Rx   d 5 80 01 3A 59 00
   5.8492 2  66F             Rx   d 8 C9 73 6B C3 BD 20 4A 61
   5.8503 2  651             Rx   d 8 C0 33 51 AF 35 54 C0 00
   5.8550 2  658             Rx   d 8 70 00 00 0E 40 00 00 00
   5.8584 2  2C3             Rx   d 1 07
   5.8600 2  351             Rx   d 8 01 88 FF 00 00 00 00 00
   5.8610 2  2C1             Rx   d 6 00 02 0D 00 02 00
   5.8627 2  5C1             Rx   d 4 00 00 09 63
   5.8649 2  359             Rx   d 8 7F 89 FF 00 00 00 80 00
   5.8677 2  66F             Rx   d 2 CA 6E
   5.8775 2  2A1             Rx   d 7 00 C0 00 8F FF FF 3F
   5.8788 2  470             Rx   d 8 80 00 C6 00 10 00 00 00
   5.8796 2  531             Rx   d 4 C3 00 20 E3
   5.8821 2  42B             Rx   d 6 13 01 00 00 00 00
   5.8869 2  67C             Rx   d 3 0A D5 02
   5.8946 2  3E1             Rx   d 8 60 00 FF 00 FA 00 84 00
   5.9058 2  62F             Rx   d 4 02 80 6F 70
   5.9296 2  433             Rx   d 8 15 01 03 01 00 00 00 00
   5.9308 2  35B             Rx   d 8 0F 00 00 00 00 00 00 00
   5.9320 2  655             Rx   d 8 00 00 E0 03 1C 08 00 C9
   5.9333 2  470             Rx   d 8 80 00 C6 00 10 00 00 00
   5.9341 2  531             Rx   d 4 C3 00 30 F3
   5.9351 2  621             Rx   d 7 00 08 80 FF 10 B6 30
   5.9499 2  651             Rx   d 8 C0 33 51 AF 35 54 C0 00
   5.9550 2  658             Rx   d 8 70 00 00 0E 40 00 00 00
   5.9562 2  65F             Rx   d 8 01 58 58 58 58 58 58 58
   5.9586 2  2C3             Rx   d 1 07
   5.9600 2  351             Rx   d 8 01 88 FF 00 00 00 00 00
   5.9610 2  2C1             Rx   d 6 00 02 0D 00 02 00
   5.9629 2  5C1             Rx   d 4 00 00 09 63
   5.9649 2  359             Rx   d 8 7F 89 FF 00 00 00 80 00
   5.9749 2  523             Rx   d 8 02 80 00 00 FF 03 00 00
   5.9782 2  470             Rx   d 8 80 00 C6 00 10 00 00 00
   5.9795 2  435             Rx   d 8 16 01 01 01 00 00 00 00
   5.9803 2  531             Rx   d 4 C3 00 40 83
   5.9815 2  527             Rx   d 8 10 FF FF B0 79 FF FF 09
   5.9943 2  3E1             Rx   d 8 60 00 FF 00 FA 00 84 00
   5.9954 2  5E1             Rx   d 7 00 00 00 00 00 00 00
   6.0100 2  Statistic: D 238 R 0 XD 0 XR 0 E 0 O 0 B 25.24%
   6.0286 2  436             Rx   d 8 1A 01 05 01 00 00 00 00
   6.0300 2  35B             Rx   d 8 0F 00 00 00 00 00 00 00
   6.0307 2  653             Rx   d 3 81 08 40
   6.0320 2  470             Rx   d 8 80 00 C6 00 10 00 00 00
   6.0328 2  531             Rx   d 4 C3 00 50 93
   6.0336 2  575             Rx   d 4 C7 20 00 00
   6.0348 2  621             Rx   d 7 00 08 80 FF 10 B6 30
   6.0394 2  635             Rx   d 3 C6 C6 30
   6.0468 2  67D             Rx   d 3 3C 91 00
   6.0499 2  651             Rx   d 8 C0 33 51 AF 35 54 C0 00
   6.0550 2  658             Rx   d 8 70 00 00 0E 40 00 00 00
   6.0586 2  2C3             Rx   d 1 07
   6.0600 2  351             Rx   d 8 01 88 FF 00 00 00 00 00
   6.0610 2  2C1             Rx   d 6 00 02 0D 00 02 00
   6.0649 2  359             Rx   d 8 7F 89 FF 00 00 00 80 00
   6.0691 2  6D8             Rx   d 3 3B 4D 00
   6.0782 2  470             Rx   d 8 80 00 C6 00 10 00 00 00
   6.0794 2  43A             Rx   d 8 0B 01 01 01 00 00 00 00
   6.0802 2  531             Rx   d 4 C3 00 60 A3
   6.0943 2  3E1             Rx   d 8 60 00 FF 00 FA 00 84 00
   6.1058 2  62F             Rx   d 4 02 80 6F 70
   6.1116 2  6DB             Rx   d 3 30 62 07
   6.1223 2  42B             Rx   d 6 13 01 00 00 00 00
   6.1275 2  2A1             Rx   d 7 00 C0 00 8F FF FF 3F
   6.1300 2  35B             Rx   d 8 0F 00 00 00 00 00 00 00
   6.1312 2  470             Rx   d 8 80 00 C6 00 10 00 00 00
   6.1320 2  531             Rx   d 4 C3 00 70 B3
   6.1348 2  621             Rx   d 7 00 08 80 FF 10 B6 30
   6.1381 2  66C             Rx   d 3 3C 4F 00
   6.1499 2  651             Rx   d 8 C0 33 51 AF 35 54 C0 00
   6.1550 2  658             Rx   d 8 70 00 00 0E 40 00 00 00
   6.1561 2  65F             Rx   d 8 02 58 58 58 58 58 58 58
   6.1587 2  2C3             Rx   d 1 07
   6.1600 2  351             Rx   d 8 01 88 FF 00 00 00 00 00
   6.1610 2  2C1             Rx   d 6 00 02 0D 00 02 00
   6.1649 2  359             Rx   d 8 7F 89 FF 00 00 00 80 00
   6.1696 2  433             Rx   d 8 15 01 03 01 00 00 00 00
   6.1749 2  523             Rx   d 8 02 80 00 00 FF 03 00 00
   6.1782 2  470             Rx   d 8 80 00 C6 00 10 00 00 00
   6.1790 2  531             Rx   d 4 C3 00 80 43
   6.1802 2  527             Rx   d 8 10 FF FF B0 79 FF FF 09
   6.1942 2  3E1             Rx   d 8 60 00 FF 00 FA 00 84 00
   6.1954 2  3E3             Rx   d 8 FF FF FF 00 00 FE 00 FF
   6.1966 2  5E1             Rx   d 7 00 00 00 00 00 00 00
   6.2192 2  435             Rx   d 8 16 01 01 01 00 00 00 00
   6.2300 2  35B             Rx   d 8 0F 00 00 00 00 00 00 00
   6.2313 2  470             Rx   d 8 80 00 C6 00 10 00 00 00
   6.2322 2  531             Rx   d 4 C3 00 90 53
   6.2330 2  575             Rx   d 4 C7 20 00 00
   6.2348 2  621             Rx   d 7 00 08 80 FF 10 B6 30
   6.2386 2  635             Rx   d 3 C6 C6 30
   6.2499 2  651             Rx   d 8 C0 33 51 AF 35 54 C0 00
   6.2550 2  658             Rx   d 8 70 00 00 0E 40 00 00 00
   6.2588 2  2C3             Rx   d 1 07
   6.2600 2  351             Rx   d 8 01 88 FF 00 00 00 00 00
   6.2610 2  2C1             Rx   d 6 00 02 0D 00 02 00
   6.2649 2  359             Rx   d 8 7F 89 FF 00 00 00 80 00
   6.2678 2  436             Rx   d 8 1A 01 05 01 00 00 00 00
   6.2782 2  470             Rx   d 8 80 00 C6 00 10 00 00 00
   6.2797 2  531             Rx   d 4 C3 00 A0 63
   6.2940 2  3E1             Rx   d 8 60 00 FF 00 FA 00 84 00
   6.3058 2  62F             Rx   d 4 02 80 6F 70
   6.3182 2  43A             Rx   d 8 0B 01 01 01 00 00 00 00
   6.3300 2  35B             Rx   d 8 0F 00 00 00 00 00 00 00
   6.3312 2  557             Rx   d 8 00 00 60 01 18 08 00 C9
   6.3324 2  470             Rx   d 8 80 00 C6 00 10 00 00 00
   6.3332 2  531             Rx   d 4 C3 00 B0 73
   6.3343 2  571             Rx   d 6 AE 00 00 00 00 00
   6.3353 2  621             Rx   d 7 00 08 80 FF 10 B6 30
   6.3499 2  651             Rx   d 8 C0 33 51 AF 35 54 C0 00
   6.3550 2  658             Rx   d 8 70 00 00 0E 40 00 00 00
   6.3562 2  65F             Rx   d 8 00 00 00 00 00 58 58 58
   6.3589 2  2C3             Rx   d 1 07
   6.3601 2  351             Rx   d 8 01 88 FF 00 00 00 00 00
   6.3611 2  2C1             Rx   d 6 00 02 0D 00 02 00
   6.3622 2  42B             Rx   d 6 13 01 00 00 00 00
   6.3649 2  359             Rx   d 8 7F 89 FF 00 00 00 80 00
   6.3749 2  523             Rx   d 8 02 80 00 00 FF 03 00 00
   6.3776 2  604             Rx   d 8 81 00 00 00 00 00 00 00
   6.3788 2  470             Rx   d 8 80 00 C6 00 10 00 00 00
   6.3797 2  531             Rx   d 4 C3 00 C0 03
   6.3809 2  527             Rx   d 8 10 FF FF B0 79 FF FF 09
   6.3820 2  5A3             Rx   d 8 08 7A 1A 32 88 07 03 00
   6.3833 2  661             Rx   d 8 83 00 00 00 00 00 00 00
   6.3844 2  507             Rx   d 6 00 00 00 00 00 00
   6.3854 2  5AF             Rx   d 5 FF FF FF FF FF
   6.3866 2  2A1             Rx   d 7 00 C0 00 8F FF FF 3F
   6.3878 2  5A1             Rx   d 8 CE 00 00 30 00 00 00 00
   6.3939 2  3E1             Rx   d 8 60 00 FF 00 FA 00 84 00
   6.3951 2  5E1             Rx   d 7 00 00 00 00 00 00 00
   6.4095 2  433             Rx   d 8 15 01 03 01 00 00 00 00
   6.4300 2  35B             Rx   d 8 0F 00 00 00 00 00 00 00
   6.4312 2  655             Rx   d 8 00 00 E0 03 1C 08 00 C9
   6.4324 2  470             Rx   d 8 80 00 C6 00 10 00 00 00
   6.4333 2  531             Rx   d 4 C3 00 D0 13
   6.4341 2  575             Rx   d 4 C7 20 00 00
   6.4352 2  621             Rx   d 7 00 08 80 FF 10 B6 30
   6.4382 2  635             Rx   d 3 C6 C6 30
   6.4397 2  63C             Rx   d 6 3B D8 FF FF FF FF
   6.4499 2  651             Rx   d 8 C0 33 51 AF 35 54 C0 00
   6.4550 2  658             Rx   d 8 70 00 00 0E 40 00 00 00
   6.4592 2  435             Rx   d 8 16 01 01 01 00 00 00 00
   6.4598 2  2C3             Rx   d 1 07
   6.4610 2  351             Rx   d 8 01 88 FF 00 00 00 00 00
   6.4620 2  2C1             Rx   d 6 00 02 0D 00 02 00
   6.4649 2  359             Rx   d 8 7F 89 FF 00 00 00 80 00
   6.4782 2  470             Rx   d 8 80 00 C6 00 10 00 00 00
   6.4790 2  531             Rx   d 4 C3 00 E0 23
   6.4937 2  3E1             Rx   d 8 60 00 FF 00 FA 00 84 00
   6.5058 2  62F             Rx   d 4 02 80 6F 70
   6.5079 2  436             Rx   d 8 1A 01 05 01 00 00 00 00
   6.5283 2  6D2             Rx   d 8 80 08 3A 1A 00 00 00 00
   6.5300 2  35B             Rx   d 8 0F 00 00 00 00 00 00 00
   6.5307 2  653             Rx   d 3 81 08 40
   6.5320 2  470             Rx   d 8 80 00 C6 00 10 00 00 00
   6.5328 2  531             Rx   d 4 C3 00 F0 33
   6.5348 2  621             Rx   d 7 00 08 80 FF 10 B6 30
   6.5421 2  665             Rx   d 7 81 00 00 00 F0 00 20
   6.5499 2  651             Rx   d 8 C0 33 51 AF 35 54 C0 00
   6.5550 2  658             Rx   d 8 70 00 00 0E 40 00 00 00
   6.5562 2  65F             Rx   d 8 01 58 58 58 58 58 58 58
   6.5582 2  43A             Rx   d 8 0B 01 01 01 00 00 00 00
   6.5592 2  6D2             Rx   d 5 C0 00 00 00 00
   6.5597 2  2C3             Rx   d 1 07
   6.5610 2  351             Rx   d 8 01 88 FF 00 00 00 00 00
   6.5620 2  2C1             Rx   d 6 00 02 0D 00 02 00
   6.5649 2  359             Rx   d 8 7F 89 FF 00 00 00 80 00
   6.5749 2  523             Rx   d 8 02 80 00 00 FF 03 00 00
   6.5782 2  470             Rx   d 8 80 00 C6 00 10 00 00 00
   6.5790 2  531             Rx   d 4 C3 00 00 C3
   6.5802 2  527             Rx   d 8 10 FF FF B0 79 FF FF 09
   6.5936 2  3E1             Rx   d 8 60 00 FF 00 FA 00 84 00
   6.5947 2  5E1             Rx   d 7 00 00 00 00 00 00 00
   6.6021 2  42B             Rx   d 6 13 01 00 00 00 00
   6.6180 2  66F             Rx   d 4 3A D1 01 00
   6.6190 2  55B             Rx   d 1 80
   6.6295 2  2A1             Rx   d 7 00 C0 00 8F FF FF 3F
   6.6307 2  35B             Rx   d 8 0F 00 00 00 00 00 00 00
   6.6319 2  470             Rx   d 8 80 00 C6 00 10 00 00 00
   6.6328 2  531             Rx   d 4 C3 00 10 D3
   6.6336 2  575             Rx   d 4 C7 20 00 00
   6.6348 2  621             Rx   d 7 00 08 80 FF 10 B6 30
   6.6383 2  635             Rx   d 3 C6 C6 30
   6.6495 2  433             Rx   d 8 15 01 03 01 00 00 00 00
   6.6506 2  651             Rx   d 8 C0 33 51 AF 35 54 C0 00
   6.6550 2  658             Rx   d 8 70 00 00 0E 40 00 00 00
   6.6590 2  56F             Rx   d 2 B8 00
   6.6596 2  2C3             Rx   d 1 07
   6.6608 2  351             Rx   d 8 01 88 FF 00 00 00 00 00
   6.6618 2  2C1             Rx   d 6 00 02 0D 00 02 00
   6.6649 2  359             Rx   d 8 7F 89 FF 00 00 00 80 00
   6.6782 2  470             Rx   d 8 80 00 C6 00 10 00 00 00
   6.6791 2  531             Rx   d 4 C3 00 20 E3
   6.6934 2  3E1             Rx   d 8 60 00 FF 00 FA 00 84 00
   6.6992 2  435             Rx   d 8 16 01 01 01 00 00 00 00
   6.7059 2  60E             Rx   d 2 08 01
   6.7067 2  62F             Rx   d 4 02 80 6F 70
   6.7300 2  35B             Rx   d 8 0F 00 00 00 00 00 00 00
   6.7312 2  65D             Rx   d 8 00 00 00 00 F0 40 02 0A
   6.7325 2  470             Rx   d 8 80 00 C6 00 10 00 00 00
   6.7333 2  531             Rx   d 4 C3 00 30 F3
   6.7348 2  621             Rx   d 7 00 08 80 FF 10 B6 30
   6.7479 2  436             Rx   d 8 1A 01 05 01 00 00 00 00
   6.7499 2  651             Rx   d 8 C0 33 51 AF 35 54 C0 00
   6.7550 2  658             Rx   d 8 70 00 00 0E 40 00 00 00
   6.7561 2  65F             Rx   d 8 02 58 58 58 58 58 58 58
   6.7592 2  2C3             Rx   d 1 07
   6.7604 2  351             Rx   d 8 01 88 FF 00 00 00 00 00
   6.7615 2  2C1             Rx   d 6 00 02 0D 00 02 00
   6.7649 2  359             Rx   d 8 7F 89 FF 00 00 00 80 00
   6.7749 2  523             Rx   d 8 02 80 00 00 FF 03 00 00
   6.7782 2  470             Rx   d 8 80 00 C6 00 10 00 00 00
   6.7790 2  531             Rx   d 4 C3 00 40 83
   6.7802 2  527             Rx   d 8 10 FF FF B0 79 FF FF 09
   6.7933 2  3E1             Rx   d 8 60 00 FF 00 FA 00 84 00
   6.7944 2  5E1             Rx   d 7 00 00 00 00 00 00 00
   6.7982 2  43A             Rx   d 8 0B 01 01 01 00 00 00 00
   6.8300 2  35B             Rx   d 8 0F 00 00 00 00 00 00 00
   6.8312 2  557             Rx   d 8 00 00 60 01 18 08 00 C9
   6.8324 2  470             Rx   d 8 80 00 C6 00 10 00 00 00
   6.8332 2  531             Rx   d 4 C3 00 50 93
   6.8343 2  571             Rx   d 6 AE 00 00 00 00 00
   6.8351 2  575             Rx   d 4 C7 20 00 00
   6.8362 2  621             Rx   d 7 00 08 80 FF 10 B5 30
   6.8385 2  635             Rx   d 3 C6 C6 30
   6.8421 2  42B             Rx   d 6 13 01 00 00 00 00
   6.8482 2  63B             Rx   d 6 3A 5B 00 00 00 00
   6.8499 2  651             Rx   d 8 C0 33 51 AF 35 54 C0 00
   6.8550 2  658             Rx   d 8 70 00 00 0E 40 00 00 00
   6.8593 2  2C3             Rx   d 1 07
   6.8605 2  351             Rx   d 8 01 88 FF 00 00 00 00 00
   6.8616 2  2C1             Rx   d 6 00 02 0D 00 02 00
   6.8649 2  359             Rx   d 8 7F 89 FF 00 00 00 80 00
   6.8774 2  2A1             Rx   d 7 00 C0 00 8F FF FF 3F
   6.8787 2  470             Rx   d 8 80 00 C6 00 10 00 00 00
   6.8795 2  531             Rx   d 4 C3 00 60 A3
   6.8895 2  433             Rx   d 8 15 01 03 01 00 00 00 00
   6.8931 2  3E1             Rx   d 8 60 00 FF 00 FA 00 84 00
   6.9057 2  62F             Rx   d 4 02 80 6F 70
   6.9300 2  35B             Rx   d 8 0F 00 00 00 00 00 00 00
   6.9312 2  655             Rx   d 8 00 00 E0 03 1C 08 00 C9
   6.9324 2  470             Rx   d 8 80 00 C6 00 10 00 00 00
   6.9332 2  531             Rx   d 4 C3 00 70 B3
   6.9348 2  621             Rx   d 7 00 08 80 FF 10 B6 30
   6.9392 2  435             Rx   d 8 16 01 01 01 00 00 00 00
   6.9499 2  651             Rx   d 8 C0 33 51 AF 35 54 C0 00
   6.9550 2  658             Rx   d 8 70 00 00 0E 40 00 00 00
   6.9563 2  65F             Rx   d 8 00 00 00 00 00 58 58 58
   6.9600 2  351             Rx   d 8 01 88 FF 00 00 00 00 00
   6.9606 2  2C3             Rx   d 1 07
   6.9621 2  2C1             Rx   d 6 00 02 0D 00 02 00
   6.9649 2  359             Rx   d 8 7F 89 FF 00 00 00 80 00
   6.9749 2  523             Rx   d 8 02 80 00 00 FF 03 00 00
   6.9783 2  470             Rx   d 8 80 00 C6 00 10 00 00 00
   6.9791 2  531             Rx   d 4 C3 00 80 43
   6.9803 2  527             Rx   d 8 10 FF FF B0 79 FF FF 09
   6.9878 2  436             Rx   d 8 1A 01 05 01 00 00 00 00
   6.9930 2  3E1             Rx   d 8 60 00 FF 00 FA 00 84 00
   6.9942 2  3E3             Rx   d 8 FF FF FF 00 00 FE 00 FF
   6.9954 2  5E1             Rx   d 7 00 00 00 00 00 00 00
   7.0100 2  Statistic: D 220 R 0 XD 0 XR 0 E 0 O 0 B 23.50%
   7.0300 2  35B             Rx   d 8 0F 00 00 00 00 00 00 00
   7.0308 2  653             Rx   d 3 81 08 40
   7.0320 2  470             Rx   d 8 80 00 C6 00 10 00 00 00
   7.0328 2  531             Rx   d 4 C3 00 90 53
   7.0338 2  575             Rx   d 4 C7 20 00 00
   7.0348 2  621             Rx   d 7 00 08 80 FF 10 B6 30
   7.0382 2  43A             Rx   d 8 0B 01 01 01 00 00 00 00
   7.0390 2  635             Rx   d 3 C6 C6 30
   7.0499 2  651             Rx   d 8 C0 33 51 AF 35 54 C0 00
   7.0550 2  658             Rx   d 8 70 00 00 0E 40 00 00 00
   7.0572 2  67D             Rx   d 8 90 07 3C 92 FF FF FF FF
   7.0600 2  351             Rx   d 8 01 88 FF 00 00 00 00 00
   7.0605 2  2C3             Rx   d 1 07
   7.0622 2  2C1             Rx   d 6 00 02 0D 00 02 00
   7.0649 2  359             Rx   d 8 7F 89 FF 00 00 00 80 00
   7.0678 2  66F             Rx   d 3 4A D7 01
   7.0691 2  6D8             Rx   d 4 3B 4E 00 00
   7.0783 2  470             Rx   d 8 80 00 C6 00 10 00 00 00
   7.0791 2  531             Rx   d 4 C3 00 A0 63
   7.0822 2  42B             Rx   d 6 13 01 00 00 00 00
   7.0867 2  67C             Rx   d 3 0A D7 01
   7.0882 2  67D             Rx   d 4 D0 FF 00 00
   7.0928 2  3E1             Rx   d 8 60 00 FF 00 FA 00 84 00
   7.1058 2  62F             Rx   d 4 02 80 6F 70
   7.1101 2  6DB             Rx   d 3 30 63 07
   7.1274 2  2A1             Rx   d 7 00 C0 00 8F FF FF 3F
   7.1295 2  433             Rx   d 8 15 01 03 01 00 00 00 00
   7.1307 2  35B             Rx   d 8 0F 00 00 00 00 00 00 00
   7.1319 2  470             Rx   d 8 80 00 C6 00 10 00 00 00
   7.1327 2  531             Rx   d 4 C3 00 B0 73
   7.1348 2  621             Rx   d 7 00 08 80 FF 10 B6 30
   7.1483 2  66C             Rx   d 6 3C 50 10 00 00 00
   7.1499 2  651             Rx   d 8 C0 33 51 AF 35 54 C0 00
   7.1550 2  658             Rx   d 8 70 00 00 0E 40 00 00 00
   7.1561 2  65F             Rx   d 8 01 58 58 58 58 58 58 58
   7.1600 2  351             Rx   d 8 01 88 FF 00 00 00 00 00
   7.1605 2  2C3             Rx   d 1 07
   7.1623 2  2C1             Rx   d 6 00 02 0D 00 02 00
   7.1649 2  359             Rx   d 8 7F 89 FF 00 00 00 80 00
   7.1749 2  523             Rx   d 8 02 80 00 00 FF 03 00 00
   7.1782 2  470             Rx   d 8 80 00 C6 00 10 00 00 00
   7.1794 2  435             Rx   d 8 16 01 01 01 00 00 00 00
   7.1803 2  531             Rx   d 4 C3 00 C0 03
   7.1815 2  527             Rx   d 8 10 FF FF B0 79 FF FF 09
   7.1927 2  3E1             Rx   d 8 60 00 FF 00 FA 00 84 00
   7.1938 2  5E1             Rx   d 7 00 00 00 00 00 00 00
   7.2285 2  436             Rx   d 8 1A 01 05 01 00 00 00 00
   7.2300 2  35B             Rx   d 8 0F 00 00 00 00 00 00 00
   7.2312 2  470             Rx   d 8 80 00 C6 00 10 00 00 00
   7.2320 2  531             Rx   d 4 C3 00 D0 13
   7.2329 2  575             Rx   d 4 C7 20 00 00
   7.2348 2  621             Rx   d 7 00 08 80 FF 10 B6 30
   7.2386 2  635             Rx   d 3 C6 C6 30
   7.2499 2  651             Rx   d 8 C0 33 51 AF 35 54 C0 00
   7.2550 2  658             Rx   d 8 70 00 00 0E 40 00 00 00
   7.2600 2  351             Rx   d 8 01 88 FF 00 00 00 00 00
   7.2605 2  2C3             Rx   d 1 07
   7.2623 2  2C1             Rx   d 6 00 02 0D 00 02 00
   7.2649 2  359             Rx   d 8 7F 89 FF 00 00 00 80 00
   7.2782 2  470             Rx   d 8 80 00 C6 00 10 00 00 00
   7.2794 2  43A             Rx   d 8 0B 01 01 01 00 00 00 00
   7.2803 2  531             Rx   d 4 C3 00 E0 23
   7.2925 2  3E1             Rx   d 8 60 00 FF 00 FA 00 84 00
   7.3057 2  62F             Rx   d 4 02 80 6F 70
   7.3223 2  42B             Rx   d 6 13 01 00 00 00 00
   7.3300 2  35B             Rx   d 8 0F 00 00 00 00 00 00 00
   7.3312 2  557             Rx   d 8 00 00 60 01 18 08 00 C9
   7.3324 2  470             Rx   d 8 80 00 C6 00 10 00 00 00
   7.3332 2  531             Rx   d 4 C3 00 F0 33
   7.3343 2  571             Rx   d 6 AF 00 00 00 00 00
   7.3354 2  621             Rx   d 7 00 08 80 FF 10 B5 30
   7.3499 2  651             Rx   d 8 C0 33 51 AF 35 54 C0 00
   7.3550 2  658             Rx   d 8 70 00 00 0E 40 00 00 00
   7.3561 2  65F             Rx   d 8 02 58 58 58 58 58 58 58
   7.3600 2  351             Rx   d 8 01 88 FF 00 00 00 00 00
   7.3605 2  2C3             Rx   d 1 07
   7.3624 2  2C1             Rx   d 6 00 02 0D 00 02 00
   7.3649 2  359             Rx   d 8 7F 89 FF 00 00 00 80 00
   7.3694 2  433             Rx   d 8 15 01 03 01 00 00 00 00
   7.3749 2  523             Rx   d 8 02 80 00 00 FF 03 00 00
   7.3775 2  604             Rx   d 8 81 00 00 00 00 00 00 00
   7.3788 2  470             Rx   d 8 80 00 C6 00 10 00 00 00
   7.3796 2  531             Rx   d 4 C3 00 00 C3
   7.3808 2  527             Rx   d 8 10 FF FF B0 79 FF FF 09
   7.3819 2  5A3             Rx   d 8 08 7A 1A 32 88 07 03 00
   7.3832 2  661             Rx   d 8 83 00 00 00 00 00 00 00
   7.3843 2  507             Rx   d 6 00 00 00 00 00 00
   7.3853 2  5AF             Rx   d 5 FF FF FF FF FF
   7.3865 2  2A1             Rx   d 7 00 C0 00 8F FF FF 3F
   7.3878 2  5A1             Rx   d 8 CE 00 00 30 00 00 00 00
   7.3934 2  3E1             Rx   d 8 60 00 FF 00 FA 00 84 00
   7.3946 2  5E1             Rx   d 7 00 00 00 00 00 00 00
   7.4192 2  435             Rx   d 8 16 01 01 01 00 00 00 00
   7.4300 2  35B             Rx   d 8 0F 00 00 00 00 00 00 00
   7.4312 2  655             Rx   d 8 00 00 E0 03 1C 08 00 C9
   7.4324 2  470             Rx   d 8 80 00 C6 00 10 00 00 00
   7.4332 2  531             Rx   d 4 C3 00 10 D3
   7.4341 2  575             Rx   d 4 C7 20 00 00
   7.4351 2  621             Rx   d 7 00 08 80 FF 10 B6 30
   7.4393 2  635             Rx   d 3 C6 C6 30
   7.4400 2  63C             Rx   d 3 3B DB FF
   7.4499 2  651             Rx   d 8 C0 33 51 AF 35 54 C0 00
   7.4550 2  658             Rx   d 8 70 00 00 0E 40 00 00 00
   7.4600 2  351             Rx   d 8 01 88 FF 00 00 00 00 00
   7.4605 2  2C3             Rx   d 1 07
   7.4625 2  2C1             Rx   d 6 00 02 0D 00 02 00
   7.4649 2  359             Rx   d 8 7F 89 FF 00 00 00 80 00
   7.4678 2  436             Rx   d 8 1A 01 05 01 00 00 00 00
   7.4782 2  470             Rx   d 8 80 00 C6 00 10 00 00 00
   7.4791 2  531             Rx   d 4 C3 00 20 E3
   7.4922 2  3E1             Rx   d 8 60 00 FF 00 FA 00 84 00
   7.5022 2  5C1             Rx   d 4 14 00 0C 63
   7.5058 2  62F             Rx   d 4 02 80 6F 70
   7.5182 2  43A             Rx   d 8 0B 01 01 01 00 00 00 00
   7.5279 2  6D2             Rx   d 3 3A 21 00
   7.5300 2  35B             Rx   d 8 0F 00 00 00 00 00 00 00
   7.5307 2  653             Rx   d 3 81 08 40
   7.5320 2  470             Rx   d 8 80 00 C6 00 10 00 00 00
   7.5328 2  531             Rx   d 4 C3 00 30 F3
   7.5348 2  621             Rx   d 7 00 08 80 FF 10 B5 30
   7.5421 2  665             Rx   d 7 81 00 00 00 F0 00 20
   7.5499 2  651             Rx   d 8 C0 33 51 AF 35 54 C0 00
   7.5550 2  658             Rx   d 8 70 00 00 0E 40 00 00 00
   7.5562 2  65F             Rx   d 8 00 00 00 00 00 58 58 58
   7.5600 2  351             Rx   d 8 01 88 FF 00 00 00 00 00
   7.5605 2  2C3             Rx   d 1 07
   7.5621 2  42B             Rx   d 6 13 01 00 00 00 00
   7.5632 2  2C1             Rx   d 6 00 02 0D 00 02 00
   7.5641 2  5C1             Rx   d 4 14 00 0E 63
   7.5653 2  359             Rx   d 8 7F 89 FF 00 00 00 80 00
   7.5749 2  523             Rx   d 8 02 80 00 00 FF 03 00 00
   7.5782 2  470             Rx   d 8 80 00 C6 00 10 00 00 00
