date Fri Oct 1 10:32:06 am 2010
base hex  timestamps absolute
internal events logged
// version 7.2.0
Begin Triggerblock Fri Oct 1 10:32:06 am 2010
   0.000000 Start of measurement
 425.000807 Li              Statistic 1 0 0 0 0 0 0
 425.000807 Li              Statistic 2 0 0 0 0 0 0
 425.000807 Li              Statistic 3 0 0 0 0 0 0
 425.000807 Li              Statistic 4 0 0 0 0 0 0
 425.000807 Li              Statistic 5 0 0 0 0 0 0
 425.000807 Li              Statistic 6 0 0 0 0 0 0
 425.000807 Li              Statistic 7 0 0 0 0 0 0
 425.000807 1  Statistic: D 0 R 0 XD 0 XR 0 E 0 O 0 B 0.0%
 425.000807 2  Statistic: D 0 R 0 XD 0 XR 0 E 0 O 0 B 0.0%
 425.000807 3  Statistic: D 0 R 0 XD 0 XR 0 E 0 O 0 B 0.0%
 425.000807 4  Statistic: D 0 R 0 XD 0 XR 0 E 0 O 0 B 0.0%
 425.000807 5  Statistic: D 0 R 0 XD 0 XR 0 E 0 O 0 B 0.0%
 425.000807 6  Statistic: D 0 R 0 XD 0 XR 0 E 0 O 0 B 0.0%
 425.000807 7  Statistic: D 0 R 0 XD 0 XR 0 E 0 O 0 B 0.0%
 425.000807 8  Statistic: D 0 R 0 XD 0 XR 0 E 0 O 0 B 0.0%
 425.000807 1  Statistic: D 0 R 0 XD 0 XR 0 E 0 O 0 B 0.0%
 425.000807 2  Statistic: D 0 R 0 XD 0 XR 0 E 0 O 0 B 0.0%
 425.000807 3  Statistic: D 0 R 0 XD 0 XR 0 E 0 O 0 B 0.0%
 425.000807 4  Statistic: D 0 R 0 XD 0 XR 0 E 0 O 0 B 0.0%
 425.000807 5  Statistic: D 0 R 0 XD 0 XR 0 E 0 O 0 B 0.0%
 425.000807 6  Statistic: D 0 R 0 XD 0 XR 0 E 0 O 0 B 0.0%
 425.000807 7  Statistic: D 0 R 0 XD 0 XR 0 E 0 O 0 B 0.0%
 425.000807 8  Statistic: D 0 R 0 XD 0 XR 0 E 0 O 0 B 0.0%
 425.000807 L7 15              Rx     6 03 00 00 0f 00 00        checksum = 98   header time =   0, full time =   0  SOF =    0.000000   BR = 0      break = 0      0        EOH =    0.000000    EOB =    0.000000     0.000000     0.000000     0.000000     0.000000     0.000000    sim = 1    EOF =  425.000807   RBR = 0      HBR = 0.000000  HSO = 0         RSO = 0
 425.001029 2  527             Rx   d 8 10 01 00 00 72 70 70 08
 425.001459    evAnalog_07  := 13.331
 425.002210 2  651             Rx   d 8 80 22 50 2F 38 57 C0 00
 425.002477 1  C2              Rx   d 8 00 80 00 80 E6 F2 00 0D
 425.003432 2  658             Rx   d 8 60 00 01 07 00 AB 00 00
 425.003899 1  280             Rx   d 8 41 67 00 00 67 00 16 16
 425.004148 1  380             Rx   d 8 40 68 00 00 A0 00 00 E0
 425.004148 4  280             Rx   d 8 41 67 00 00 67 00 16 16
 425.004388 1  1A0             Rx   d 8 00 40 00 00 FE FE 00 18
 425.004626 1  288             Rx   d 8 D9 FF D4 00 00 00 27 65
 425.004646 2  289             Rx   d 4 42 02 40 00
 425.004646 4  1A0             Rx   d 8 00 40 00 00 FE FE 00 18
 425.004871 1  480             Rx   d 8 C1 2C 00 00 00 88 10 75
 425.004887 4  288             Rx   d 8 D9 FF D4 00 00 00 27 65
 425.005105 1  488             Rx   d 8 CF 16 67 7F FE FF 00 C0
 425.005134 4  480             Rx   d 8 C1 2C 00 00 00 88 10 75
 425.005271 1  38A             Rx   d 4 42 02 40 00
 425.005518 1  48A             Rx   d 8 F0 00 00 00 00 00 00 F0
 425.005758 Li 11              Rx     2 00 c6                    checksum = 39   header time =   0, full time =   0  SOF =    0.000000   BR = 0      break = 0      0        EOH =    0.000000    EOB =    0.000000     0.000000    sim = 1    EOF =  425.005758   RBR = 0      HBR = 0.000000  HSO = 0         RSO = 0
 425.005774 1  48C             Rx   d 8 00 00 00 00 00 00 00 00
 425.005774 4  48A             Rx   d 8 F0 00 00 00 00 00 00 F0
 425.005904 1  3D0             Rx   d 2 00 00
 425.006032 4  48C             Rx   d 8 00 00 00 00 00 00 00 00
 425.006156 1  4A0             Rx   d 8 00 00 00 00 00 00 00 00
 425.006166 4  3D0             Rx   d 2 00 00
 425.006399 1  540             Rx   d 8 C0 00 FF 00 FF 00 20 00
 425.006643 1  2A0             Rx   d 8 00 00 00 24 00 00 80 A4
 425.006659 4  540             Rx   d 8 C0 00 FF 00 FF 00 20 00
 425.006881 1  588             Rx   d 8 E9 00 7F 00 FF 80 00 56
 425.006903 4  2A0             Rx   d 8 00 00 00 24 00 00 80 A4
 425.007127 1  5A0             Rx   d 8 7D 00 00 40 00 00 00 AB
 425.007142 4  588             Rx   d 8 E9 00 7F 00 FF 80 00 56
 425.007373 1  5E0             Rx   d 8 00 00 34 00 00 00 84 00
 425.007390 4  5A0             Rx   d 8 7D 00 00 40 00 00 00 AB
 425.007622 1  4A8             Rx   d 8 00 00 03 90 00 00 40 D3
 425.007890 1  1AC             Rx   d 8 14 04 00 00 00 00 12 02
 425.007962 4  320             Rx   d 8 10 00 0F 01 00 0A 00 80
 425.008163 1  3A0             Rx   d 8 0B 04 00 00 00 00 00 0F
 425.008406 1  320             Rx   d 8 10 00 0F 01 00 0A 00 80
 425.009969 L7 d               Rx     4 00 01 00 00              checksum = f1   header time =   0, full time =   0  SOF =    0.000000   BR = 0      break = 0      0        EOH =    0.000000    EOB =    0.000000     0.000000     0.000000     0.000000    sim = 1    EOF =  425.009969   RBR = 0      HBR = 0.000000  HSO = 0         RSO = 0
 425.010307 L5 b               Rx     8 00 00 00 00 00 00 00 00  checksum = 74   header time =   0, full time =   0  SOF =    0.000000   BR = 0      break = 0      0        EOH =    0.000000    EOB =    0.000000     0.000000     0.000000     0.000000     0.000000     0.000000     0.000000     0.000000    sim = 1    EOF =  425.010307   RBR = 0      HBR = 0.000000  HSO = 0         RSO = 0
 425.011651    evAnalog_07  := 13.361
 425.012476 1  C2              Rx   d 8 00 80 00 80 E6 02 00 FD
 425.013878 1  280             Rx   d 8 41 67 00 00 67 00 16 16
 425.014127 1  380             Rx   d 8 40 68 00 00 A0 00 00 E0
 425.014127 4  280             Rx   d 8 41 67 00 00 67 00 16 16
 425.014296 1  50              Rx   d 4 00 B0 50 E0
 425.014541 1  1A0             Rx   d 8 00 40 00 00 FE FE 00 19
 425.014778 1  488             Rx   d 8 DF 16 67 7F FE FF 00 D0
 425.014804 4  1A0             Rx   d 8 00 40 00 00 FE FE 00 19
 425.014976 4  50              Rx   d 4 00 B0 50 E0
 425.015030 1  4A0             Rx   d 8 00 00 00 00 00 00 00 00
 425.015275 1  540             Rx   d 8 D0 00 FF 00 FF 00 20 00
 425.015516 1  2A0             Rx   d 8 00 00 00 24 00 00 90 B4
 425.015537 4  540             Rx   d 8 D0 00 FF 00 FF 00 20 00
 425.015780 4  2A0             Rx   d 8 00 00 00 24 00 00 90 B4
 425.016497 1  497             Rx   d 8 00 00 00 00 74 00 00 00
 425.017032 L7 e            TransmErr    header time =   0, full time =   0  SOF =    0.000000   BR = 0      break = 0      0        EOH =    0.000000   HBR = 0.000000  HSO = 0
 425.017732 2  497             Rx   d 8 00 00 00 00 74 00 00 00
 425.020261 2  3E1             Rx   d 8 00 00 34 00 00 00 84 00
 425.020810 L5 12              Rx     6 cf 80 88 88 fe ff        checksum = 0d   header time =   0, full time =   0  SOF =    0.000000   BR = 0      break = 0      0        EOH =    0.000000    EOB =    0.000000     0.000000     0.000000     0.000000     0.000000     0.000000    sim = 1    EOF =  425.020810   RBR = 0      HBR = 0.000000  HSO = 0         RSO = 0
 425.021539    evAnalog_07  := 13.361
 425.021631    evAnalog_08  := 13.375
 425.022470 1  C2              Rx   d 8 00 80 00 80 E6 12 00 ED
 425.023867 1  280             Rx   d 8 41 67 00 00 67 00 16 16
 425.024115 1  380             Rx   d 8 40 68 00 00 A0 00 00 E0
 425.024115 4  280             Rx   d 8 41 67 00 00 67 00 16 16
 425.024355 1  1A0             Rx   d 8 00 40 00 00 FE FE 00 1A
 425.024597 1  288             Rx   d 8 11 FF D4 00 00 00 27 65
 425.024616 4  1A0             Rx   d 8 00 40 00 00 FE FE 00 1A
 425.024662 2  289             Rx   d 4 52 02 50 00
 425.024840 1  480             Rx   d 8 12 2C 00 00 00 88 10 A6
 425.024859 4  288             Rx   d 8 11 FF D4 00 00 00 27 65
 425.025074 1  488             Rx   d 8 EF 16 67 7F FE FF 00 E0
 425.025102 4  480             Rx   d 8 12 2C 00 00 00 88 10 A6
 425.025244 1  38A             Rx   d 4 52 02 50 00
 425.025492 1  48A             Rx   d 8 00 00 00 00 00 00 00 00
 425.025750 1  4A0             Rx   d 8 00 00 00 00 00 00 00 00
 425.025750 4  48A             Rx   d 8 00 00 00 00 00 00 00 00
 425.025879 1  3D0             Rx   d 2 00 00
 425.026028 4  3D0             Rx   d 2 00 00
 425.026123 1  2A0             Rx   d 8 00 00 00 24 00 00 A0 84
 425.026365 1  540             Rx   d 8 E0 00 FF 00 FF 00 20 00
 425.026378 4  2A0             Rx   d 8 00 00 00 24 00 00 A0 84
 425.026604 1  588             Rx   d 8 E9 00 7F 00 FF 80 00 56
 425.026626 4  540             Rx   d 8 E0 00 FF 00 FF 00 20 00
 425.026632 Li 29              Rx     4 00 c6 00 00              checksum = 39   header time =   0, full time =   0  SOF =    0.000000   BR = 0      break = 0      0        EOH =    0.000000    EOB =    0.000000     0.000000     0.000000     0.000000    sim = 1    EOF =  425.026632   RBR = 0      HBR = 0.000000  HSO = 0         RSO = 0
 425.026846 1  5A0             Rx   d 8 7D 00 00 50 00 00 00 AB
 425.026864 4  588             Rx   d 8 E9 00 7F 00 FF 80 00 56
 425.027092 1  5E0             Rx   d 8 00 00 34 00 00 00 84 00
 425.027108 4  5A0             Rx   d 8 7D 00 00 50 00 00 00 AB
 425.027331 1  4A8             Rx   d 8 0B 00 03 90 00 00 50 C8
 425.027602 1  1AC             Rx   d 8 15 05 00 00 00 00 12 02
 425.027873 1  3A0             Rx   d 8 0A 05 00 00 00 00 00 0F
 425.028093 4  320             Rx   d 8 10 00 0F 01 00 0B 00 80
 425.028351 1  320             Rx   d 8 10 00 0F 01 00 0B 00 80
 425.028379 4  420             Rx   d 8 84 70 70 00 00 00 FF 04
 425.028636 4  5D2             Rx   d 8 01 4D 41 51 36 4A 5A 39
 425.028636 1  420             Rx   d 8 84 70 70 00 00 00 FF 04
 425.028874 1  5D2             Rx   d 8 01 4D 41 51 36 4A 5A 39
 425.028900 4  621             Rx   d 8 00 8B 01 0F 81 00 64 00
 425.029565 L3 1c              Rx     2 0b 00                    checksum = f4   header time =   0, full time =   0  SOF =    0.000000   BR = 0      break = 0      0        EOH =    0.000000    EOB =    0.000000     0.000000    sim = 1    EOF =  425.029565   RBR = 0      HBR = 0.000000  HSO = 0         RSO = 0
 425.029783 2  65F             Rx   d 8 01 4D 41 51 36 4A 5A 39
 425.030359 L5 30              Rx     5 50 00 11 00 70           checksum = 2e   header time =   0, full time =   0  SOF =    0.000000   BR = 0      break = 0      0        EOH =    0.000000    EOB =    0.000000     0.000000     0.000000     0.000000     0.000000    sim = 1    EOF =  425.030359   RBR = 0      HBR = 0.000000  HSO = 0         RSO = 0
 425.030984 2  621             Rx   d 8 00 8B 01 0F 81 00 64 00
 425.031532    evAnalog_07  := 13.361
 425.031665 L7 16              Rx     6 2f ff 00 40 ff ff        checksum = b9   header time =   0, full time =   0  SOF =    0.000000   BR = 0      break = 0      0        EOH =    0.000000    EOB =    0.000000     0.000000     0.000000     0.000000     0.000000     0.000000    sim = 1    EOF =  425.031665   RBR = 0      HBR = 0.000000  HSO = 0         RSO = 0
 425.032467 1  C2              Rx   d 8 00 80 00 80 E6 22 00 DD
 425.033886 1  280             Rx   d 8 41 67 00 00 67 00 16 16
 425.034135 1  380             Rx   d 8 40 68 00 00 A0 00 00 E0
 425.034135 4  280             Rx   d 8 41 67 00 00 67 00 16 16
 425.034376 1  1A0             Rx   d 8 00 40 00 00 FE FE 00 1B
 425.034611 1  488             Rx   d 8 FF 16 67 7F FE FF 00 F0
 425.034641 4  1A0             Rx   d 8 00 40 00 00 FE FE 00 1B
 425.034863 1  4A0             Rx   d 8 00 00 00 00 00 00 00 00
 425.034877 4  50              Rx   d 4 00 B0 50 E0
 425.035005 2  470             Rx   d 8 80 00 00 46 00 00 00 15
 425.035105 1  540             Rx   d 8 F0 00 FF 00 FF 00 20 00
 425.035345 1  2A0             Rx   d 8 00 00 00 24 00 00 B0 94
 425.035365 4  540             Rx   d 8 F0 00 FF 00 FF 00 20 00
 425.035593 1  550             Rx   d 8 00 80 80 00 00 00 00 00
 425.035606 4  2A0             Rx   d 8 00 00 00 24 00 00 B0 94
 425.035834 1  58C             Rx   d 8 90 80 00 00 FE 10 00 E2
 425.035851 2  151             Rx   d 4 00 B0 50 E0
 425.035851 4  550             Rx   d 8 00 80 80 00 00 00 00 00
 425.036004 1  50              Rx   d 4 00 B0 60 D0
 425.036094 4  58C             Rx   d 8 90 80 00 00 FE 10 00 E2
 425.036686 2  531             Rx   d 4 00 00 E0 E0
 425.036962 Li 33              Rx     8 70 ff a3 24 58 0f 2a 00  checksum = c2   header time =   0, full time =   0  SOF =    0.000000   BR = 0      break = 0      0        EOH =    0.000000    EOB =    0.000000     0.000000     0.000000     0.000000     0.000000     0.000000     0.000000     0.000000    sim = 1    EOF =  425.036962   RBR = 0      HBR = 0.000000  HSO = 0         RSO = 0
 425.037887 2  58C             Rx   d 8 90 80 00 00 FE 10 00 E2
 425.039789 2  435             Rx   d 8 19 01 01 01 00 00 00 00
 425.040374 L5 31              Rx     5 08 00 00 00 00           checksum = f7   header time =   0, full time =   0  SOF =    0.000000   BR = 0      break = 0      0        EOH =    0.000000    EOB =    0.000000     0.000000     0.000000     0.000000     0.000000    sim = 1    EOF =  425.040374   RBR = 0      HBR = 0.000000  HSO = 0         RSO = 0
 425.040488 L7 18              Rx     4 20 ff ff ff              checksum = 07   header time =   0, full time =   0  SOF =    0.000000   BR = 0      break = 0      0        EOH =    0.000000    EOB =    0.000000     0.000000     0.000000     0.000000    sim = 1    EOF =  425.040488   RBR = 0      HBR = 0.000000  HSO = 0         RSO = 0
 425.041365    evAnalog_07  := 13.361
 425.042467 1  C2              Rx   d 8 00 80 00 80 E6 32 00 CD
 425.043892 1  280             Rx   d 8 41 67 00 00 67 00 16 16
 425.044104 Li 3b           TransmErr    header time =   0, full time =   0  SOF =    0.000000   BR = 0      break = 0      0        EOH =    0.000000   HBR = 0.000000  HSO = 0
 425.044140 1  380             Rx   d 8 40 68 00 00 A0 00 00 E0
 425.044140 4  280             Rx   d 8 41 67 00 00 67 00 16 16
 425.044382 1  1A0             Rx   d 8 00 40 00 00 FE FE 00 1C
 425.044630 1  288             Rx   d 8 11 FF D4 00 00 00 27 65
 425.044630 2  289             Rx   d 4 62 02 60 00
 425.044647 4  1A0             Rx   d 8 00 40 00 00 FE FE 00 1C
 425.044869 1  390             Rx   d 8 03 00 58 00 40 00 00 00
 425.044889 4  288             Rx   d 8 11 FF D4 00 00 00 27 65
 425.045039 1  38A             Rx   d 4 62 02 60 00
 425.045134 4  470             Rx   d 8 C0 00 00 46 00 00 00 15
 425.045286 1  392             Rx   d 8 08 01 00 01 00 00 00 00
 425.045528 1  480             Rx   d 8 12 2C 00 00 00 88 10 A6
 425.045767 1  488             Rx   d 8 0F 16 67 7F FE FF 00 00
 425.045788 4  480             Rx   d 8 12 2C 00 00 00 88 10 A6
 425.045901 1  3D0             Rx   d 2 00 00
 425.046049 4  3D0             Rx   d 2 00 00
 425.046149 1  48A             Rx   d 8 10 00 00 00 00 00 00 10
 425.046397 1  48C             Rx   d 8 01 01 00 00 00 00 00 00
 425.046410 4  48A             Rx   d 8 10 00 00 00 00 00 00 10
 425.046658 1  4A0             Rx   d 8 00 00 00 00 00 00 00 00
 425.046658 4  48C             Rx   d 8 01 01 00 00 00 00 00 00
 425.046895 1  540             Rx   d 8 00 00 FF 00 FF 00 20 00
 425.047142 1  2A0             Rx   d 8 00 00 00 24 00 00 C0 E4
 425.047160 4  540             Rx   d 8 00 00 FF 00 FF 00 20 00
 425.047326 1  570             Rx   d 5 87 00 A8 00 80
 425.047406 4  2A0             Rx   d 8 00 00 00 24 00 00 C0 E4
 425.047565 1  588             Rx   d 8 E9 00 7F 00 FF 80 00 56
 425.047813 1  5A0             Rx   d 8 7D 00 00 60 00 00 00 AB
 425.047813 4  588             Rx   d 8 E9 00 7F 00 FF 80 00 56
 425.048046 1  5D0             Rx   d 8 80 22 50 2F 38 57 C0 00
 425.048061 4  320             Rx   d 8 10 00 0F 01 00 0C 00 80
 425.048293 1  4A8             Rx   d 8 00 00 03 90 00 00 60 F3
 425.048304 4  5A0             Rx   d 8 7D 00 00 60 00 00 00 AB
 425.048534 1  5D8             Rx   d 8 15 0D 20 01 18 00 00 03
 425.048695 L3 1f              Rx     2 cb 00                    checksum = 34   header time =   0, full time =   0  SOF =    0.000000   BR = 0      break = 0      0        EOH =    0.000000    EOB =    0.000000     0.000000    sim = 1    EOF =  425.048695   RBR = 0      HBR = 0.000000  HSO = 0         RSO = 0
 425.048778 1  1AC             Rx   d 8 16 06 00 00 00 00 12 02
 425.049022 1  320             Rx   d 8 10 00 0F 01 00 0C 00 80
 425.049273 1  3A0             Rx   d 8 09 06 00 00 00 00 00 0F
 425.049511 1  5DC             Rx   d 8 F5 00 F0 01 18 08 00 C0
 425.049759 1  5B7             Rx   d 8 00 00 00 00 00 00 00 00
 425.050006 1  5E0             Rx   d 8 00 00 34 00 00 00 84 00
 425.050418 L5 22              Rx     4 0e 29 84 00              checksum = 44   header time =   0, full time =   0  SOF =    0.000000   BR = 0      break = 0      0        EOH =    0.000000    EOB =    0.000000     0.000000     0.000000     0.000000    sim = 1    EOF =  425.050418   RBR = 0      HBR = 0.000000  HSO = 0         RSO = 0
 425.050835 L7 15              Rx     6 03 00 00 0f 00 00        checksum = 98   header time =   0, full time =   0  SOF =    0.000000   BR = 0      break = 0      0        EOH =    0.000000    EOB =    0.000000     0.000000     0.000000     0.000000     0.000000     0.000000    sim = 1    EOF =  425.050835   RBR = 0      HBR = 0.000000  HSO = 0         RSO = 0
 425.051460    evAnalog_07  := 13.361
 425.052469 1  C2              Rx   d 8 00 80 00 80 E6 42 00 BD
 425.053874 1  280             Rx   d 8 41 67 00 00 67 00 16 16
 425.054122 1  380             Rx   d 8 40 68 00 00 A0 00 00 E0
 425.054122 4  280             Rx   d 8 41 67 00 00 67 00 16 16
 425.054288 1  50              Rx   d 4 00 B0 70 C0
 425.054533 1  1A0             Rx   d 8 00 40 00 00 FE FE 00 1D
 425.054777 1  488             Rx   d 8 1F 16 67 7F FE FF 00 10
 425.054794 4  1A0             Rx   d 8 00 40 00 00 FE FE 00 1D
 425.054963 4  50              Rx   d 4 00 B0 70 C0
 425.055029 1  4A0             Rx   d 8 00 00 00 00 00 00 00 00
 425.055275 1  540             Rx   d 8 10 00 FF 00 FF 00 20 00
 425.055460 2  3C1             Rx   d 2 00 00
 425.055515 1  2A0             Rx   d 8 00 00 00 24 00 00 D0 F4
 425.055540 4  540             Rx   d 8 10 00 FF 00 FF 00 20 00
 425.055780 4  2A0             Rx   d 8 00 00 00 24 00 00 D0 F4
 425.055788 Li 11              Rx     2 00 c6                    checksum = 39   header time =   0, full time =   0  SOF =    0.000000   BR = 0      break = 0      0        EOH =    0.000000    EOB =    0.000000     0.000000    sim = 1    EOF =  425.055788   RBR = 0      HBR = 0.000000  HSO = 0         RSO = 0
 425.055791 1  5DE             Rx   d 5 00 00 00 00 00
 425.056661 2  555             Rx   d 8 E9 00 7F 00 FF 80 00 56
 425.060228 L5 10              Rx     8 0b 00 70 00 00 00 01 00  checksum = 33   header time =   0, full time =   0  SOF =    0.000000   BR = 0      break = 0      0        EOH =    0.000000    EOB =    0.000000     0.000000     0.000000     0.000000     0.000000     0.000000     0.000000     0.000000    sim = 1    EOF =  425.060228   RBR = 0      HBR = 0.000000  HSO = 0         RSO = 0
 425.060362 2  63C             Rx   d 8 90 08 3B D0 1E C0 03 00
 425.060432 L7 19              Rx     4 20 ff ff ff              checksum = 46   header time =   0, full time =   0  SOF =    0.000000   BR = 0      break = 0      0        EOH =    0.000000    EOB =    0.000000     0.000000     0.000000     0.000000    sim = 1    EOF =  425.060432   RBR = 0      HBR = 0.000000  HSO = 0         RSO = 0
 425.061315    evAnalog_07  := 13.361
 425.061745 1  394             Rx   d 8 0B 7F 7F 91 7D 00 00 F0
 425.062000 4  394             Rx   d 8 0B 7F 7F 91 7D 00 00 F0
 425.062470 1  C2              Rx   d 8 00 80 00 80 E6 52 00 AD
 425.063914 1  280             Rx   d 8 41 67 00 00 67 00 16 16
 425.064158 1  380             Rx   d 8 40 68 00 00 A0 00 00 E0
 425.064173 4  280             Rx   d 8 41 67 00 00 67 00 16 16
 425.064402 1  1A0             Rx   d 8 00 40 00 00 FE FE 00 1E
 425.064583 2  289             Rx   d 4 72 02 70 00
 425.064645 1  288             Rx   d 8 11 FF D4 00 00 00 27 65
 425.064663 4  1A0             Rx   d 8 00 40 00 00 FE FE 00 1E
 425.064811 1  38A             Rx   d 4 72 02 70 00
 425.064905 4  288             Rx   d 8 11 FF D4 00 00 00 27 65
 425.065053 1  480             Rx   d 8 12 2C 00 00 00 88 10 A6
 425.065291 1  488             Rx   d 8 2F 16 67 7F FE FF 00 20
 425.065313 4  480             Rx   d 8 12 2C 00 00 00 88 10 A6
 425.065540 1  48A             Rx   d 8 20 00 00 00 00 00 00 20
 425.065694 2  2C1             Rx   d 6 00 00 00 00 04 00
 425.065798 1  4A0             Rx   d 8 00 00 00 00 00 00 00 00
 425.065798 4  48A             Rx   d 8 20 00 00 00 00 00 00 20
 425.065927 1  3D0             Rx   d 2 00 00
 425.066074 4  3D0             Rx   d 2 00 00
 425.066173 1  2A0             Rx   d 8 00 00 00 24 00 00 E0 C4
 425.066419 1  540             Rx   d 8 20 00 FF 00 FF 00 20 00
 425.066430 4  2A0             Rx   d 8 00 00 00 24 00 00 E0 C4
 425.066657 1  588             Rx   d 8 E9 00 7F 00 FF 80 00 56
 425.066690 4  540             Rx   d 8 20 00 FF 00 FF 00 20 00
 425.066774 2  381             Rx   d 6 00 00 FF 00 00 00
 425.066900 1  5A0             Rx   d 8 7D 00 00 70 00 00 00 AB
 425.066929 4  588             Rx   d 8 E9 00 7F 00 FF 80 00 56
 425.067069 L7 e            TransmErr    header time =   0, full time =   0  SOF =    0.000000   BR = 0      break = 0      0        EOH =    0.000000   HBR = 0.000000  HSO = 0
 425.067146 1  5E0             Rx   d 8 00 00 34 00 00 00 84 00
 425.067171 4  5A0             Rx   d 8 7D 00 00 70 00 00 00 AB
 425.067388 1  4A8             Rx   d 8 00 00 03 90 00 00 70 E3
 425.067571 Li 2f              Rx     8 5e 25 fe 7f 41 19 d0 7e  checksum = e4   header time =   0, full time =   0  SOF =    0.000000   BR = 0      break = 0      0        EOH =    0.000000    EOB =    0.000000     0.000000     0.000000     0.000000     0.000000     0.000000     0.000000     0.000000    sim = 1    EOF =  425.067571   RBR = 0      HBR = 0.000000  HSO = 0         RSO = 0
 425.067659 1  1AC             Rx   d 8 17 07 00 00 00 00 12 02
 425.067929 1  3A0             Rx   d 8 08 07 00 00 00 00 00 0F
 425.068035 2  397             Rx   d 8 00 00 00 00 00 00 00 00
 425.068115 4  320             Rx   d 8 10 00 0F 01 00 0D 00 80
 425.068371 1  320             Rx   d 8 10 00 0F 01 00 0D 00 80
 425.069097 2  3B5             Rx   d 6 00 00 FF 00 00 00
 425.069575 L5 21              Rx     3 00 00 00                 checksum = ff   header time =   0, full time =   0  SOF =    0.000000   BR = 0      break = 0      0        EOH =    0.000000    EOB =    0.000000     0.000000     0.000000    sim = 1    EOF =  425.069575   RBR = 0      HBR = 0.000000  HSO = 0         RSO = 0
 425.069867 2  457             Rx   d 3 00 A0 00
 425.070928 2  4B9             Rx   d 6 00 00 FF 00 00 00
 425.071420    evAnalog_07  := 13.361
 425.071509    evAnalog_08  := 13.361
 425.071979 2  4BD             Rx   d 6 00 00 FF 00 00 00
 425.072467 1  C2              Rx   d 8 00 80 00 80 E6 62 00 9D
 425.073880 1  280             Rx   d 8 41 67 00 00 67 00 16 16
 425.074130 1  380             Rx   d 8 40 68 00 00 A0 00 00 E0
 425.074130 4  280             Rx   d 8 41 67 00 00 67 00 16 16
 425.074296 1  50              Rx   d 4 00 B0 80 30
 425.074543 1  1A0             Rx   d 8 00 40 00 00 FE FE 00 1F
 425.074786 1  488             Rx   d 8 3F 16 67 7F FE FF 00 30
 425.074809 4  1A0             Rx   d 8 00 40 00 00 FE FE 00 1F
 425.074979 4  50              Rx   d 4 00 B0 80 30
 425.075038 1  4A0             Rx   d 8 00 00 00 00 00 00 00 00
 425.075285 1  540             Rx   d 8 30 00 FF 00 FF 00 20 00
 425.075525 1  2A0             Rx   d 8 00 00 00 24 00 00 F0 D4
 425.075548 4  540             Rx   d 8 30 00 FF 00 FF 00 20 00
 425.075788 4  2A0             Rx   d 8 00 00 00 24 00 00 F0 D4
 425.075824 Li 36              Rx     2 00 00                    checksum = 89   header time =   0, full time =   0  SOF =    0.000000   BR = 0      break = 0      0        EOH =    0.000000    EOB =    0.000000     0.000000    sim = 1    EOF =  425.075824   RBR = 0      HBR = 0.000000  HSO = 0         RSO = 0
 425.076000 2  5B5             Rx   d 8 08 07 00 00 00 00 00 0F
 425.080121 2  63C             Rx   d 5 D0 60 00 00 00
 425.080848 L5 12              Rx     6 cf 80 88 88 fe ff        checksum = 0d   header time =   0, full time =   0  SOF =    0.000000   BR = 0      break = 0      0        EOH =    0.000000    EOB =    0.000000     0.000000     0.000000     0.000000     0.000000     0.000000    sim = 1    EOF =  425.080848   RBR = 0      HBR = 0.000000  HSO = 0         RSO = 0
 425.081320    evAnalog_07  := 13.361
 425.081331 2  439             Rx   d 8 1A 01 01 01 01 00 00 00
 425.081654 L7 16              Rx     6 2f ff 00 40 ff ff        checksum = b9   header time =   0, full time =   0  SOF =    0.000000   BR = 0      break = 0      0        EOH =    0.000000    EOB =    0.000000     0.000000     0.000000     0.000000     0.000000     0.000000    sim = 1    EOF =  425.081654   RBR = 0      HBR = 0.000000  HSO = 0         RSO = 0
 425.082461 1  C2              Rx   d 8 00 80 00 80 E6 72 00 8D
 425.083916 1  280             Rx   d 8 41 67 00 00 67 00 16 16
 425.084144 Li 3d           TransmErr    header time =   0, full time =   0  SOF =    0.000000   BR = 0      break = 0      0        EOH =    0.000000   HBR = 0.000000  HSO = 0
 425.084164 1  1A0             Rx   d 8 00 40 00 00 FE FE 00 10
 425.084174 4  280             Rx   d 8 41 67 00 00 67 00 16 16
 425.084407 1  288             Rx   d 8 11 FF D4 00 00 00 27 65
 425.084430 4  1A0             Rx   d 8 00 40 00 00 FE FE 00 10
 425.084622 2  289             Rx   d 4 82 02 80 00
 425.084651 1  380             Rx   d 8 40 68 00 00 A0 00 00 E0
 425.084673 4  288             Rx   d 8 11 FF D4 00 00 00 27 65
 425.084822 1  38A             Rx   d 4 82 02 80 00
 425.085063 1  480             Rx   d 8 12 2C 00 00 00 88 10 A6
 425.085302 1  488             Rx   d 8 4F 16 67 7F FE FF 00 40
 425.085323 4  480             Rx   d 8 12 2C 00 00 00 88 10 A6
 425.085551 1  48A             Rx   d 8 30 00 00 00 00 00 00 30
 425.085799 1  48C             Rx   d 8 02 02 00 00 00 00 00 00
 425.085811 4  48A             Rx   d 8 30 00 00 00 00 00 00 30
 425.085873 2  470             Rx   d 8 80 00 00 46 00 00 00 15
 425.085933 1  3D0             Rx   d 2 00 00
 425.086059 4  48C             Rx   d 8 02 02 00 00 00 00 00 00
 425.086191 1  4A0             Rx   d 8 00 00 00 00 00 00 00 00
 425.086191 4  3D0             Rx   d 2 00 00
 425.086429 1  540             Rx   d 8 40 00 FF 00 FF 00 20 00
 425.086675 1  2A0             Rx   d 8 00 00 00 24 00 00 00 24
 425.086692 4  540             Rx   d 8 40 00 FF 00 FF 00 20 00
 425.086914 1  588             Rx   d 8 E9 00 7F 00 FF 80 00 56
 425.086939 4  2A0             Rx   d 8 00 00 00 24 00 00 00 24
 425.087055 2  3C3             Rx   d 8 00 80 00 80 E6 72 00 8D
 425.087158 1  5A0             Rx   d 8 7D 00 00 80 00 00 00 AB
 425.087177 4  588             Rx   d 8 E9 00 7F 00 FF 80 00 56
 425.087404 1  5E0             Rx   d 8 00 00 34 00 00 00 84 00
 425.087423 4  5A0             Rx   d 8 7D 00 00 80 00 00 00 AB
 425.087646 1  4A8             Rx   d 8 2D 00 03 90 00 00 80 3E
 425.087884 2  531             Rx   d 4 00 00 F0 F0
 425.087915 1  1AC             Rx   d 8 18 08 00 00 00 00 12 02
 425.088034 4  320             Rx   d 8 10 00 0F 01 00 0E 00 80
 425.088187 1  3A0             Rx   d 8 07 08 00 00 00 00 00 0F
 425.088432 1  320             Rx   d 8 10 00 0F 01 00 0E 00 80
 425.088776 2  5C1             Rx   d 4 00 00 00 00
 425.088968 4  5C1             Rx   d 4 00 00 00 00
 425.090411 L5 30              Rx     5 50 00 11 00 70           checksum = 2e   header time =   0, full time =   0  SOF =    0.000000   BR = 0      break = 0      0        EOH =    0.000000    EOB =    0.000000     0.000000     0.000000     0.000000     0.000000    sim = 1    EOF =  425.090411   RBR = 0      HBR = 0.000000  HSO = 0         RSO = 0
 425.090525 L7 17              Rx     4 20 ff ff ff              checksum = 48   header time =   0, full time =   0  SOF =    0.000000   BR = 0      break = 0      0        EOH =    0.000000    EOB =    0.000000     0.000000     0.000000     0.000000    sim = 1    EOF =  425.090525   RBR = 0      HBR = 0.000000  HSO = 0         RSO = 0
 425.091266    evAnalog_07  := 13.361
 425.092467 1  C2              Rx   d 8 00 80 00 80 E6 82 00 7D
 425.093878 1  280             Rx   d 8 41 67 00 00 67 00 16 16
 425.094126 1  380             Rx   d 8 40 68 00 00 A0 00 00 E0
 425.094126 4  280             Rx   d 8 41 67 00 00 67 00 16 16
 425.094292 1  50              Rx   d 4 00 B0 90 20
 425.094536 1  1A0             Rx   d 8 00 40 00 00 FE FE 00 11
 425.094773 1  488             Rx   d 8 5F 16 67 7F FE FF 00 50
 425.094798 4  1A0             Rx   d 8 00 40 00 00 FE FE 00 11
 425.094968 4  50              Rx   d 4 00 B0 90 20
 425.095025 1  4A0             Rx   d 8 00 00 00 00 00 00 00 00
 425.095239 4  35F             Rx   d 8 28 00 00 00 00 00 00 00
 425.095267 1  540             Rx   d 8 50 00 FF 00 FF 00 20 00
 425.095513 4  470             Rx   d 8 C0 00 00 46 00 00 00 15
 425.095513 1  2A0             Rx   d 8 00 00 00 24 00 00 10 34
 425.095751 4  540             Rx   d 8 50 00 FF 00 FF 00 20 00
 425.095936 4  570             Rx   d 5 87 00 A8 00 80
 425.096087 2  359             Rx   d 8 A8 01 00 00 00 2B 40 00
 425.096180 4  2A0             Rx   d 8 00 00 00 24 00 00 10 34
 425.096416 4  5D0             Rx   d 8 80 22 50 2F 38 57 C0 00
 425.096687 4  5DC             Rx   d 8 F5 00 F0 01 18 08 00 C0
 425.096945 4  651             Rx   d 8 80 22 50 2F 38 57 C0 00
 425.097213 4  658             Rx   d 8 60 00 01 07 00 AB 00 00
 425.097298 2  35B             Rx   d 8 08 00 00 FF 24 00 0C 00
 425.098518 2  369             Rx   d 8 BC 01 00 00 00 00 00 00
 425.099700 2  651             Rx   d 8 80 22 50 2F 38 57 C0 00
 425.099969 L3 20              Rx     4 3b 0c a0 00              checksum = 18   header time =   0, full time =   0  SOF =    0.000000   BR = 0      break = 0      0        EOH =    0.000000    EOB =    0.000000     0.000000     0.000000     0.000000    sim = 1    EOF =  425.099969   RBR = 0      HBR = 0.000000  HSO = 0         RSO = 0
 425.100384 L5 31              Rx     5 08 00 00 00 00           checksum = f7   header time =   0, full time =   0  SOF =    0.000000   BR = 0      break = 0      0        EOH =    0.000000    EOB =    0.000000     0.000000     0.000000     0.000000     0.000000    sim = 1    EOF =  425.100384   RBR = 0      HBR = 0.000000  HSO = 0         RSO = 0
 425.100801 L7 15              Rx     6 03 00 00 0f 00 00        checksum = 98   header time =   0, full time =   0  SOF =    0.000000   BR = 0      break = 0      0        EOH =    0.000000    EOB =    0.000000     0.000000     0.000000     0.000000     0.000000     0.000000    sim = 1    EOF =  425.100801   RBR = 0      HBR = 0.000000  HSO = 0         RSO = 0
 425.100921 2  658             Rx   d 8 60 00 01 07 00 AB 00 00
 425.101200    evAnalog_07  := 13.331
 425.102460 1  C2              Rx   d 8 00 80 00 80 E6 92 00 6D
 425.103887 1  280             Rx   d 8 41 67 00 00 67 00 16 16
 425.104136 1  380             Rx   d 8 40 68 00 00 A0 00 00 E0
 425.104136 4  280             Rx   d 8 41 67 00 00 67 00 16 16
 425.104378 1  1A0             Rx   d 8 00 40 00 00 FE FE 00 12
 425.104581 2  289             Rx   d 4 92 02 90 00
 425.104620 1  288             Rx   d 8 40 FF D4 00 00 00 27 65
 425.104641 4  1A0             Rx   d 8 00 40 00 00 FE FE 00 12
 425.104788 1  38A             Rx   d 4 92 02 90 00
 425.104884 4  288             Rx   d 8 40 FF D4 00 00 00 27 65
 425.105028 1  480             Rx   d 8 4F 2C 00 00 00 88 10 FB
 425.105262 1  488             Rx   d 8 6F 16 67 7F FE FF 00 60
 425.105286 4  480             Rx   d 8 4F 2C 00 00 00 88 10 FB
 425.105510 1  48A             Rx   d 8 40 00 00 00 00 00 00 40
 425.105765 1  4A0             Rx   d 8 00 00 00 00 00 00 00 00
 425.105765 4  48A             Rx   d 8 40 00 00 00 00 00 00 40
 425.105834 Li 11              Rx     2 00 c6                    checksum = 39   header time =   0, full time =   0  SOF =    0.000000   BR = 0      break = 0      0        EOH =    0.000000    EOB =    0.000000     0.000000    sim = 1    EOF =  425.105834   RBR = 0      HBR = 0.000000  HSO = 0         RSO = 0
 425.105896 1  3D0             Rx   d 2 00 00
 425.106043 4  3D0             Rx   d 2 00 00
 425.106142 1  2A0             Rx   d 8 00 00 00 24 00 00 20 04
 425.106384 1  540             Rx   d 8 60 00 FF 00 FF 00 20 00
 425.106398 4  2A0             Rx   d 8 00 00 00 24 00 00 20 04
 425.106623 1  588             Rx   d 8 E9 00 7F 00 FF 80 00 56
 425.106642 4  540             Rx   d 8 60 00 FF 00 FF 00 20 00
 425.106866 1  5A0             Rx   d 8 7D 00 00 90 00 00 00 AB
 425.106881 4  588             Rx   d 8 E9 00 7F 00 FF 80 00 56
 425.107113 1  5E0             Rx   d 8 00 00 34 00 00 00 84 00
 425.107127 4  5A0             Rx   d 8 7D 00 00 90 00 00 00 AB
 425.107362 1  4A8             Rx   d 8 00 00 03 90 00 00 90 03
 425.107630 1  1AC             Rx   d 8 19 09 00 00 00 00 12 02
 425.107900 1  3A0             Rx   d 8 06 09 00 00 00 00 00 0F
 425.108002 4  320             Rx   d 8 10 00 0F 01 00 0F 00 80
 425.108258 1  320             Rx   d 8 10 00 0F 01 00 0F 00 80
 425.109993 L7 d               Rx     4 00 01 00 00              checksum = f1   header time =   0, full time =   0  SOF =    0.000000   BR = 0      break = 0      0        EOH =    0.000000    EOB =    0.000000     0.000000     0.000000     0.000000    sim = 1    EOF =  425.109993   RBR = 0      HBR = 0.000000  HSO = 0         RSO = 0
 425.110395 L5 22              Rx     4 0f 29 84 00              checksum = 43   header time =   0, full time =   0  SOF =    0.000000   BR = 0      break = 0      0        EOH =    0.000000    EOB =    0.000000     0.000000     0.000000     0.000000    sim = 1    EOF =  425.110395   RBR = 0      HBR = 0.000000  HSO = 0         RSO = 0
 425.111369    evAnalog_07  := 13.361
 425.112460 1  C2              Rx   d 8 00 80 00 80 E6 A2 00 5D
 425.113882 1  280             Rx   d 8 41 67 00 00 67 00 16 16
 425.114131 1  380             Rx   d 8 40 68 00 00 A0 00 00 E0
 425.114131 4  280             Rx   d 8 41 67 00 00 67 00 16 16
 425.114298 1  50              Rx   d 4 00 B0 A0 10
 425.114545 1  1A0             Rx   d 8 00 40 00 00 FE FE 00 13
 425.114779 1  488             Rx   d 8 7F 16 67 7F FE FF 00 70
 425.114808 4  1A0             Rx   d 8 00 40 00 00 FE FE 00 13
 425.114980 4  50              Rx   d 4 00 B0 A0 10
 425.115031 1  4A0             Rx   d 8 00 00 00 00 00 00 00 00
 425.115278 1  540             Rx   d 8 70 00 FF 00 FF 00 20 00
 425.115522 1  2A0             Rx   d 8 00 00 00 24 00 00 30 14
 425.115543 4  540             Rx   d 8 70 00 FF 00 FF 00 20 00
 425.115787 4  2A0             Rx   d 8 00 00 00 24 00 00 30 14
 425.116660 1  497             Rx   d 8 00 00 00 00 74 00 00 00
 425.117094 L7 e            TransmErr    header time =   0, full time =   0  SOF =    0.000000   BR = 0      break = 0      0        EOH =    0.000000   HBR = 0.000000  HSO = 0
 425.117902 2  497             Rx   d 8 00 00 00 00 74 00 00 00
 425.117905 Li 2e              Rx     8 00 00 00 00 80 00 08 f3  checksum = 55   header time =   0, full time =   0  SOF =    0.000000   BR = 0      break = 0      0        EOH =    0.000000    EOB =    0.000000     0.000000     0.000000     0.000000     0.000000     0.000000     0.000000     0.000000    sim = 1    EOF =  425.117905   RBR = 0      HBR = 0.000000  HSO = 0         RSO = 0
 425.120122 2  3E1             Rx   d 8 00 00 34 00 00 00 84 00
 425.120817 L5 6               Rx     6 00 f3 e0 ff ff f1        checksum = 33   header time =   0, full time =   0  SOF =    0.000000   BR = 0      break = 0      0        EOH =    0.000000    EOB =    0.000000     0.000000     0.000000     0.000000     0.000000     0.000000    sim = 1    EOF =  425.120817   RBR = 0      HBR = 0.000000  HSO = 0         RSO = 0
 425.121278    evAnalog_07  := 13.331
 425.121282 2  5E1             Rx   d 7 80 00 00 00 00 00 00
 425.121371    evAnalog_08  := 13.361
 425.122462 1  C2              Rx   d 8 00 80 00 80 E6 B2 00 4D
 425.123872 1  280             Rx   d 8 41 67 00 00 67 00 16 16
 425.124120 1  380             Rx   d 8 40 68 00 00 A0 00 00 E0
 425.124120 4  280             Rx   d 8 41 67 00 00 67 00 16 16
 425.124362 1  1A0             Rx   d 8 00 40 00 00 FE FE 00 14
 425.124605 1  288             Rx   d 8 40 FF D4 00 00 00 27 65
 425.124625 4  1A0             Rx   d 8 00 40 00 00 FE FE 00 14
 425.124653 2  289             Rx   d 4 A2 02 A0 00
 425.124845 1  480             Rx   d 8 4F 2C 00 00 00 88 10 FB
 425.124867 4  288             Rx   d 8 40 FF D4 00 00 00 27 65
 425.125080 1  488             Rx   d 8 8F 16 67 7F FE FF 00 80
 425.125108 4  480             Rx   d 8 4F 2C 00 00 00 88 10 FB
 425.125250 1  38A             Rx   d 4 A2 02 A0 00
 425.125494 1  48A             Rx   d 8 50 00 00 00 00 00 00 50
 425.125747 1  48C             Rx   d 8 03 03 00 00 00 00 00 00
 425.125747 4  48A             Rx   d 8 50 00 00 00 00 00 00 50
 425.125877 1  3D0             Rx   d 2 00 00
 425.126001 4  48C             Rx   d 8 03 03 00 00 00 00 00 00
 425.126133 1  4A0             Rx   d 8 00 00 00 00 00 00 00 00
 425.126133 4  3D0             Rx   d 2 00 00
 425.126375 1  540             Rx   d 8 80 00 FF 00 FF 00 20 00
 425.126617 1  2A0             Rx   d 8 00 00 00 24 00 00 40 64
 425.126639 4  540             Rx   d 8 80 00 FF 00 FF 00 20 00
 425.126855 1  588             Rx   d 8 E9 00 7F 00 FF 80 00 56
 425.126881 4  2A0             Rx   d 8 00 00 00 24 00 00 40 64
 425.126924 2  43A             Rx   d 8 00 01 01 01 00 00 00 00
 425.127063 Li 29              Rx     4 00 c6 00 00              checksum = 39   header time =   0, full time =   0  SOF =    0.000000   BR = 0      break = 0      0        EOH =    0.000000    EOB =    0.000000     0.000000     0.000000     0.000000    sim = 1    EOF =  425.127063   RBR = 0      HBR = 0.000000  HSO = 0         RSO = 0
 425.127098 1  5A0             Rx   d 8 7D 00 00 A0 00 00 00 AB
 425.127120 4  588             Rx   d 8 E9 00 7F 00 FF 80 00 56
 425.127166 L5 7            TransmErr    header time =   0, full time =   0  SOF =    0.000000   BR = 0      break = 0      0        EOH =    0.000000   HBR = 0.000000  HSO = 0
 425.127344 1  5E0             Rx   d 8 00 00 34 00 00 00 84 00
 425.127362 4  5A0             Rx   d 8 7D 00 00 A0 00 00 00 AB
 425.127584 1  4A8             Rx   d 8 0B 80 03 90 00 00 A0 B8
 425.127855 1  1AC             Rx   d 8 1A 0A 00 00 00 00 12 02
 425.127970 4  320             Rx   d 8 10 00 0F 01 00 00 00 80
 425.128131 1  3A0             Rx   d 8 05 0A 00 00 00 00 00 0F
 425.128239 4  520             Rx   d 8 01 01 01 8B 01 00 00 00
 425.128376 1  320             Rx   d 8 10 00 0F 01 00 00 00 80
 425.128503 4  621             Rx   d 8 00 8B 01 0F 81 00 64 00
 425.128619 1  520             Rx   d 8 01 01 01 8B 01 00 00 00
 425.129573 L3 1c              Rx     2 0c 00                    checksum = f3   header time =   0, full time =   0  SOF =    0.000000   BR = 0      break = 0      0        EOH =    0.000000    EOB =    0.000000     0.000000    sim = 1    EOF =  425.129573   RBR = 0      HBR = 0.000000  HSO = 0         RSO = 0
 425.129694 2  621             Rx   d 8 00 8B 01 0F 81 00 64 00
 425.130355 2  5CB             Rx   d 2 01 00
 425.131154    evAnalog_07  := 13.331
 425.131680 L7 16              Rx     6 2f ff 00 40 ff ff        checksum = b9   header time =   0, full time =   0  SOF =    0.000000   BR = 0      break = 0      0        EOH =    0.000000    EOB =    0.000000     0.000000     0.000000     0.000000     0.000000     0.000000    sim = 1    EOF =  425.131680   RBR = 0      HBR = 0.000000  HSO = 0         RSO = 0
 425.132458 1  C2              Rx   d 8 00 80 00 80 E6 C2 00 3D
 425.133878 1  280             Rx   d 8 41 67 00 00 67 00 16 16
 425.134126 1  380             Rx   d 8 40 68 00 00 A0 00 00 E0
 425.134126 4  280             Rx   d 8 41 67 00 00 67 00 16 16
 425.134292 1  50              Rx   d 4 00 B0 B0 00
 425.134536 1  1A0             Rx   d 8 00 40 00 00 FE FE 00 15
 425.134770 1  488             Rx   d 8 9F 16 67 7F FE FF 00 90
 425.134797 4  1A0             Rx   d 8 00 40 00 00 FE FE 00 15
 425.134968 4  50              Rx   d 4 00 B0 B0 00
 425.135023 1  4A0             Rx   d 8 00 00 00 00 00 00 00 00
 425.135046 2  470             Rx   d 8 80 00 00 46 00 00 00 15
 425.135265 1  540             Rx   d 8 90 00 FF 00 FF 00 20 00
 425.135510 1  2A0             Rx   d 8 00 00 00 24 00 00 50 74
 425.135526 4  540             Rx   d 8 90 00 FF 00 FF 00 20 00
 425.135750 1  58C             Rx   d 8 90 80 00 00 FE 10 00 E2
 425.135770 4  2A0             Rx   d 8 00 00 00 24 00 00 50 74
 425.135877 2  151             Rx   d 4 00 B0 B0 00
 425.136014 4  58C             Rx   d 8 90 80 00 00 FE 10 00 E2
 425.136748 2  531             Rx   d 4 00 00 00 00
 425.137895 Li 34              Rx     8 4c 01 00 36 00 00 3a 0d  checksum = 80   header time =   0, full time =   0  SOF =    0.000000   BR = 0      break = 0      0        EOH =    0.000000    EOB =    0.000000     0.000000     0.000000     0.000000     0.000000     0.000000     0.000000     0.000000    sim = 1    EOF =  425.137895   RBR = 0      HBR = 0.000000  HSO = 0         RSO = 0
 425.137949 2  58C             Rx   d 8 90 80 00 00 FE 10 00 E2
 425.140484 L7 18              Rx     4 20 ff ff ff              checksum = 07   header time =   0, full time =   0  SOF =    0.000000   BR = 0      break = 0      0        EOH =    0.000000    EOB =    0.000000     0.000000     0.000000     0.000000    sim = 1    EOF =  425.140484   RBR = 0      HBR = 0.000000  HSO = 0         RSO = 0
 425.140892 L5 12              Rx     6 cf 80 88 88 fe ff        checksum = 0d   header time =   0, full time =   0  SOF =    0.000000   BR = 0      break = 0      0        EOH =    0.000000    EOB =    0.000000     0.000000     0.000000     0.000000     0.000000     0.000000    sim = 1    EOF =  425.140892   RBR = 0      HBR = 0.000000  HSO = 0         RSO = 0
 425.141230    evAnalog_07  := 13.361
 425.142455 1  C2              Rx   d 8 00 80 00 80 E6 D2 00 2D
 425.143869 1  280             Rx   d 8 41 67 00 00 67 00 16 16
 425.144118 1  380             Rx   d 8 40 68 00 00 A0 00 00 E0
 425.144118 4  280             Rx   d 8 41 67 00 00 67 00 16 16
 425.144358 1  1A0             Rx   d 8 00 40 00 00 FE FE 00 16
 425.144583 Li 3d           TransmErr    header time =   0, full time =   0  SOF =    0.000000   BR = 0      break = 0      0        EOH =    0.000000   HBR = 0.000000  HSO = 0
 425.144600 1  288             Rx   d 8 40 FF D4 00 00 00 27 65
 425.144619 4  1A0             Rx   d 8 00 40 00 00 FE FE 00 16
 425.144629 2  289             Rx   d 4 B2 02 B0 00
 425.144841 1  480             Rx   d 8 4F 2C 00 00 00 88 10 FB
 425.144862 4  288             Rx   d 8 40 FF D4 00 00 00 27 65
 425.145075 1  488             Rx   d 8 AF 16 67 7F FE FF 00 A0
 425.145108 4  470             Rx   d 8 C0 00 00 46 00 00 00 15
 425.145243 1  38A             Rx   d 4 B2 02 B0 00
 425.145348 4  480             Rx   d 8 4F 2C 00 00 00 88 10 FB
 425.145492 1  48A             Rx   d 8 60 00 00 00 00 00 00 60
 425.145752 1  4A0             Rx   d 8 00 00 00 00 00 00 00 00
 425.145752 4  48A             Rx   d 8 60 00 00 00 00 00 00 60
 425.145878 1  3D0             Rx   d 2 00 00
 425.146025 4  3D0             Rx   d 2 00 00
 425.146120 1  2A0             Rx   d 8 00 00 00 24 00 00 60 44
 425.146362 1  540             Rx   d 8 A0 00 FF 00 FF 00 20 00
 425.146373 4  2A0             Rx   d 8 00 00 00 24 00 00 60 44
 425.146601 1  588             Rx   d 8 E9 00 7F 00 FF 80 00 56
 425.146622 4  540             Rx   d 8 A0 00 FF 00 FF 00 20 00
 425.146845 1  5A0             Rx   d 8 7D 00 00 B0 00 00 00 AB
 425.146861 4  588             Rx   d 8 E9 00 7F 00 FF 80 00 56
 425.147075 1  720             Rx   d 7 04 03 01 00 00 00 00
 425.147107 4  5A0             Rx   d 8 7D 00 00 B0 00 00 00 AB
 425.147317 1  4A8             Rx   d 8 0B 00 03 90 00 00 B0 28
 425.147561 1  390             Rx   d 8 03 00 58 00 40 00 00 00
 425.147804 1  1AC             Rx   d 8 1B 0B 00 00 00 00 12 02
 425.148050 1  392             Rx   d 8 08 01 00 01 00 00 00 00
 425.148064 4  320             Rx   d 8 10 00 0F 01 00 01 00 80
 425.148296 1  3A0             Rx   d 8 04 0B 00 00 00 00 00 0F
 425.148542 1  393             Rx   d 8 FB 00 00 00 00 00 00 00
 425.148755 L3 1f              Rx     2 db 00                    checksum = 24   header time =   0, full time =   0  SOF =    0.000000   BR = 0      break = 0      0        EOH =    0.000000    EOB =    0.000000     0.000000    sim = 1    EOF =  425.148755   RBR = 0      HBR = 0.000000  HSO = 0         RSO = 0
 425.148789 1  320             Rx   d 8 10 00 0F 01 00 01 00 80
 425.148970 4  727             Rx   d 7 08 01 01 00 00 00 00
 425.148970 1  570             Rx   d 5 87 00 A8 00 80
 425.149222 1  5B7             Rx   d 8 00 00 00 00 00 00 00 00
 425.149458 1  5D0             Rx   d 8 80 22 50 2F 38 57 C0 00
 425.149720 1  5D8             Rx   d 8 15 0D 20 01 18 00 00 03
 425.149981 1  5DC             Rx   d 8 F5 00 F0 01 18 08 00 C0
 425.150255 1  5E0             Rx   d 8 00 00 34 00 00 00 84 00
 425.150483 L5 30              Rx     5 50 00 11 00 70           checksum = 2e   header time =   0, full time =   0  SOF =    0.000000   BR = 0      break = 0      0        EOH =    0.000000    EOB =    0.000000     0.000000     0.000000     0.000000     0.000000    sim = 1    EOF =  425.150483   RBR = 0      HBR = 0.000000  HSO = 0         RSO = 0
 425.150900 L7 15              Rx     6 03 00 00 0f 00 00        checksum = 98   header time =   0, full time =   0  SOF =    0.000000   BR = 0      break = 0      0        EOH =    0.000000    EOB =    0.000000     0.000000     0.000000     0.000000     0.000000     0.000000    sim = 1    EOF =  425.150900   RBR = 0      HBR = 0.000000  HSO = 0         RSO = 0
 425.151105    evAnalog_07  := 13.361
 425.152453 1  C2              Rx   d 8 00 80 00 80 E6 E2 00 1D
 425.153901 1  280             Rx   d 8 41 67 00 00 67 00 16 16
 425.154150 1  380             Rx   d 8 40 68 00 00 A0 00 00 E0
 425.154150 4  280             Rx   d 8 41 67 00 00 67 00 16 16
 425.154314 1  50              Rx   d 4 00 B0 C0 70
 425.154560 1  1A0             Rx   d 8 00 40 00 00 FE FE 00 17
 425.154794 1  488             Rx   d 8 BF 16 67 7F FE FF 00 B0
 425.154824 4  1A0             Rx   d 8 00 40 00 00 FE FE 00 17
 425.154992 4  50              Rx   d 4 00 B0 C0 70
 425.155046 1  4A0             Rx   d 8 00 00 00 00 00 00 00 00
 425.155291 1  540             Rx   d 8 B0 00 FF 00 FF 00 20 00
 425.155534 1  2A0             Rx   d 8 00 00 00 24 00 00 70 54
 425.155552 4  540             Rx   d 8 B0 00 FF 00 FF 00 20 00
 425.155796 4  2A0             Rx   d 8 00 00 00 24 00 00 70 54
 425.156021 2  555             Rx   d 8 E9 00 7F 00 FF 80 00 56
 425.156242 Li 11              Rx     2 00 c6                    checksum = 39   header time =   0, full time =   0  SOF =    0.000000   BR = 0      break = 0      0        EOH =    0.000000    EOB =    0.000000     0.000000    sim = 1    EOF =  425.156242   RBR = 0      HBR = 0.000000  HSO = 0         RSO = 0
 425.160469 L5 31              Rx     5 08 00 00 00 00           checksum = f7   header time =   0, full time =   0  SOF =    0.000000   BR = 0      break = 0      0        EOH =    0.000000    EOB =    0.000000     0.000000     0.000000     0.000000     0.000000    sim = 1    EOF =  425.160469   RBR = 0      HBR = 0.000000  HSO = 0         RSO = 0
 425.160583 L7 19              Rx     4 20 ff ff ff              checksum = 46   header time =   0, full time =   0  SOF =    0.000000   BR = 0      break = 0      0        EOH =    0.000000    EOB =    0.000000     0.000000     0.000000     0.000000    sim = 1    EOF =  425.160583   RBR = 0      HBR = 0.000000  HSO = 0         RSO = 0
 425.161038    evAnalog_07  := 13.361
 425.161741 1  394             Rx   d 8 0B 7F 7F 91 7D 00 00 00
 425.161997 4  394             Rx   d 8 0B 7F 7F 91 7D 00 00 00
 425.162459 1  C2              Rx   d 8 00 80 00 80 E6 F2 00 0D
 425.163897 1  280             Rx   d 8 41 67 00 00 67 00 16 16
 425.164145 1  380             Rx   d 8 40 68 00 00 A0 00 00 E0
 425.164145 4  280             Rx   d 8 41 67 00 00 67 00 16 16
 425.164386 1  1A0             Rx   d 8 00 40 00 00 FE FE 00 18
 425.164611 2  289             Rx   d 4 C2 02 C0 00
 425.164628 1  288             Rx   d 8 40 FF D4 00 00 00 27 65
 425.164647 4  1A0             Rx   d 8 00 40 00 00 FE FE 00 18
 425.164868 1  480             Rx   d 8 4F 2C 00 00 00 88 10 FB
 425.164898 4  288             Rx   d 8 40 FF D4 00 00 00 27 65
 425.165034 1  38A             Rx   d 4 C2 02 C0 00
 425.165138 4  480             Rx   d 8 4F 2C 00 00 00 88 10 FB
 425.165269 1  488             Rx   d 8 CF 16 67 7F FE FF 00 C0
 425.165515 1  48A             Rx   d 8 70 00 00 00 00 00 00 70
 425.165702 2  2C1             Rx   d 6 00 00 00 00 04 00
 425.165763 1  48C             Rx   d 8 04 04 00 00 00 00 00 00
 425.165774 4  48A             Rx   d 8 70 00 00 00 00 00 00 70
 425.165897 1  3D0             Rx   d 2 00 00
 425.166024 4  48C             Rx   d 8 04 04 00 00 00 00 00 00
 425.166155 1  4A0             Rx   d 8 00 00 00 00 00 00 00 00
 425.166155 4  3D0             Rx   d 2 00 00
 425.166392 1  540             Rx   d 8 C0 00 FF 00 FF 00 20 00
 425.166636 1  2A0             Rx   d 8 00 00 00 24 00 00 80 A4
 425.166652 4  540             Rx   d 8 C0 00 FF 00 FF 00 20 00
 425.166783 2  381             Rx   d 6 00 00 FF 00 00 00
 425.166875 1  588             Rx   d 8 E9 00 7F 00 FF 80 00 56
 425.166897 4  2A0             Rx   d 8 00 00 00 24 00 00 80 A4
 425.167059 L7 e            TransmErr    header time =   0, full time =   0  SOF =    0.000000   BR = 0      break = 0      0        EOH =    0.000000   HBR = 0.000000  HSO = 0
 425.167119 1  5A0             Rx   d 8 7C 00 00 C0 00 00 00 AB
 425.167135 4  588             Rx   d 8 E9 00 7F 00 FF 80 00 56
 425.167365 1  5E0             Rx   d 8 00 00 34 00 00 00 84 00
 425.167382 4  5A0             Rx   d 8 7C 00 00 C0 00 00 00 AB
 425.167606 1  4A8             Rx   d 8 0B 00 03 90 00 00 C0 58
 425.167875 1  1AC             Rx   d 8 1C 0C 00 00 00 00 12 02
 425.167954 4  320             Rx   d 8 10 00 0F 01 00 02 00 80
 425.168044 2  397             Rx   d 8 00 00 00 00 00 00 00 00
 425.168086 Li 2f              Rx     8 60 25 ff 7f 41 19 d0 7f  checksum = e0   header time =   0, full time =   0  SOF =    0.000000   BR = 0      break = 0      0        EOH =    0.000000    EOB =    0.000000     0.000000     0.000000     0.000000     0.000000     0.000000     0.000000     0.000000    sim = 1    EOF =  425.168086   RBR = 0      HBR = 0.000000  HSO = 0         RSO = 0
 425.168148 1  3A0             Rx   d 8 03 0C 00 00 00 00 00 0F
 425.168392 1  320             Rx   d 8 10 00 0F 01 00 02 00 80
 425.169106 2  3B5             Rx   d 6 00 00 FF 00 00 00
 425.169876 2  457             Rx   d 3 00 A0 00
 425.170468 L5 22              Rx     4 00 29 84 00              checksum = 52   header time =   0, full time =   0  SOF =    0.000000   BR = 0      break = 0      0        EOH =    0.000000    EOB =    0.000000     0.000000     0.000000     0.000000    sim = 1    EOF =  425.170468   RBR = 0      HBR = 0.000000  HSO = 0         RSO = 0
 425.170937 2  4B9             Rx   d 6 00 00 FF 00 00 00
 425.171282    evAnalog_07  := 13.346
 425.171373    evAnalog_08  := 13.361
 425.171987 2  4BD             Rx   d 6 00 00 FF 00 00 00
 425.172452 1  C2              Rx   d 8 00 80 00 80 E6 02 00 FD
 425.172909 2  575             Rx   d 4 87 00 00 80
 425.173876 1  280             Rx   d 8 41 67 00 00 67 00 16 16
 425.174125 1  380             Rx   d 8 40 68 00 00 A0 00 00 E0
 425.174125 4  280             Rx   d 8 41 67 00 00 67 00 16 16
 425.174149 2  591             Rx   d 8 03 00 08 00 00 00 00 00
 425.174291 1  50              Rx   d 4 00 B0 D0 60
 425.174538 1  1A0             Rx   d 8 00 40 00 00 FE FE 00 19
 425.174578 Li 37           TransmErr    header time =   0, full time =   0  SOF =    0.000000   BR = 0      break = 0      0        EOH =    0.000000   HBR = 0.000000  HSO = 0
 425.174774 1  488             Rx   d 8 DF 16 67 7F FE FF 00 D0
 425.174801 4  1A0             Rx   d 8 00 40 00 00 FE FE 00 19
 425.175026 4  50              Rx   d 4 00 B0 D0 60
 425.175026 1  4A0             Rx   d 8 00 00 00 00 00 00 00 00
 425.175270 1  540             Rx   d 8 D0 00 FF 00 FF 00 20 00
 425.175411 2  400             Rx   d 8 01 01 A0 05 2C 00 00 00
 425.175512 1  2A0             Rx   d 8 00 00 00 24 00 00 90 B4
 425.175532 4  540             Rx   d 8 D0 00 FF 00 FF 00 20 00
 425.175774 4  2A0             Rx   d 8 00 00 00 24 00 00 90 B4
 425.176111 2  5D1             Rx   d 2 10 00
 425.176892 2  635             Rx   d 3 00 00 64
 425.180259 L5 10              Rx     8 0b 00 70 00 00 00 01 00  checksum = 33   header time =   0, full time =   0  SOF =    0.000000   BR = 0      break = 0      0        EOH =    0.000000    EOB =    0.000000     0.000000     0.000000     0.000000     0.000000     0.000000     0.000000     0.000000    sim = 1    EOF =  425.180259   RBR = 0      HBR = 0.000000  HSO = 0         RSO = 0
 425.180991    evAnalog_07  := 13.331
 425.181711 L7 16              Rx     6 2f ff 00 40 ff ff        checksum = b9   header time =   0, full time =   0  SOF =    0.000000   BR = 0      break = 0      0        EOH =    0.000000    EOB =    0.000000     0.000000     0.000000     0.000000     0.000000     0.000000    sim = 1    EOF =  425.181711   RBR = 0      HBR = 0.000000  HSO = 0         RSO = 0
 425.182447 1  C2              Rx   d 8 00 80 00 80 E6 12 00 ED
 425.183882 1  280             Rx   d 8 41 67 00 00 67 00 16 16
 425.184131 1  380             Rx   d 8 40 68 00 00 A0 00 00 E0
 425.184131 4  280             Rx   d 8 41 67 00 00 67 00 16 16
 425.184370 1  1A0             Rx   d 8 00 40 00 00 FE FE 00 1A
 425.184608 2  289             Rx   d 4 D2 02 D0 00
 425.184608 1  288             Rx   d 8 8F FF D4 00 00 00 27 65
 425.184632 4  1A0             Rx   d 8 00 40 00 00 FE FE 00 1A
 425.184853 1  480             Rx   d 8 84 2C 00 00 00 88 10 30
 425.184870 4  288             Rx   d 8 8F FF D4 00 00 00 27 65
 425.185087 1  488             Rx   d 8 EF 16 67 7F FE FF 00 E0
 425.185116 4  480             Rx   d 8 84 2C 00 00 00 88 10 30
 425.185254 1  38A             Rx   d 4 D2 02 D0 00
 425.185500 1  48A             Rx   d 8 80 00 00 00 00 00 00 80
 425.185756 1  4A0             Rx   d 8 00 00 00 00 00 00 00 00
 425.185756 4  48A             Rx   d 8 80 00 00 00 00 00 00 80
 425.185865 2  470             Rx   d 8 80 00 00 46 00 00 00 15
 425.185886 1  3D0             Rx   d 2 00 00
 425.186062 4  3D0             Rx   d 2 00 00
 425.186131 1  2A0             Rx   d 8 00 00 00 24 00 00 A0 84
 425.186373 1  540             Rx   d 8 E0 00 FF 00 FF 00 20 00
 425.186385 4  2A0             Rx   d 8 00 00 00 24 00 00 A0 84
 425.186611 1  588             Rx   d 8 E9 00 7F 00 FF 80 00 56
 425.186633 4  540             Rx   d 8 E0 00 FF 00 FF 00 20 00
 425.186853 1  5A0             Rx   d 8 7D 00 00 D0 00 00 00 AB
 425.186871 4  588             Rx   d 8 E9 00 7F 00 FF 80 00 56
 425.187055 2  3C3             Rx   d 8 00 80 00 80 E6 12 00 ED
 425.187082 L5 29           TransmErr    header time =   0, full time =   0  SOF =    0.000000   BR = 0      break = 0      0        EOH =    0.000000   HBR = 0.000000  HSO = 0
 425.187099 1  5E0             Rx   d 8 00 00 34 00 00 00 84 00
 425.187115 4  5A0             Rx   d 8 7D 00 00 D0 00 00 00 AB
 425.187346 1  4A8             Rx   d 8 00 00 03 90 00 00 D0 43
 425.187612 1  1AC             Rx   d 8 1D 0D 00 00 00 00 12 02
 425.187882 1  3A0             Rx   d 8 02 0D 00 00 00 00 00 0F
 425.187926 2  531             Rx   d 4 00 00 10 10
 425.188120 4  320             Rx   d 8 10 00 0F 01 00 03 00 80
 425.188182 Li 2d              Rx     8 eb 25 16 80 e8 ff fe ff  checksum = c2   header time =   0, full time =   0  SOF =    0.000000   BR = 0      break = 0      0        EOH =    0.000000    EOB =    0.000000     0.000000     0.000000     0.000000     0.000000     0.000000     0.000000     0.000000    sim = 1    EOF =  425.188182   RBR = 0      HBR = 0.000000  HSO = 0         RSO = 0
 425.188376 1  320             Rx   d 8 10 00 0F 01 00 03 00 80
 425.188816 2  5C1             Rx   d 4 00 00 00 00
 425.189008 4  5C1             Rx   d 4 00 00 00 00
 425.190434 L7 17              Rx     4 20 ff ff ff              checksum = 48   header time =   0, full time =   0  SOF =    0.000000   BR = 0      break = 0      0        EOH =    0.000000    EOB =    0.000000     0.000000     0.000000     0.000000    sim = 1    EOF =  425.190434   RBR = 0      HBR = 0.000000  HSO = 0         RSO = 0
 425.191016    evAnalog_07  := 13.361
 425.192446 1  C2              Rx   d 8 00 80 00 80 E6 22 00 DD
 425.193863 1  280             Rx   d 8 41 67 00 00 67 00 16 16
 425.194111 1  380             Rx   d 8 40 68 00 00 A0 00 00 E0
 425.194111 4  280             Rx   d 8 41 67 00 00 67 00 16 16
 425.194277 1  50              Rx   d 4 00 B0 E0 50
 425.194339 4  720             Rx   d 7 04 06 A1 00 00 00 00
 425.194523 1  1A0             Rx   d 8 00 40 00 00 FE FE 00 1B
 425.194551 Li 3d           TransmErr    header time =   0, full time =   0  SOF =    0.000000   BR = 0      break = 0      0        EOH =    0.000000   HBR = 0.000000  HSO = 0
 425.194758 1  488             Rx   d 8 FF 16 67 7F FE FF 00 F0
 425.194787 4  1A0             Rx   d 8 00 40 00 00 FE FE 00 1B
 425.194958 4  50              Rx   d 4 00 B0 E0 50
 425.195010 1  4A0             Rx   d 8 00 00 00 00 00 00 00 00
 425.195228 4  35F             Rx   d 8 28 00 00 00 00 00 00 00
 425.195252 1  540             Rx   d 8 F0 00 FF 00 FF 00 20 00
 425.195496 1  2A0             Rx   d 8 00 00 00 24 00 00 B0 94
 425.195496 4  393             Rx   d 8 FB 00 00 00 00 00 00 00
 425.195737 4  540             Rx   d 8 F0 00 FF 00 FF 00 20 00
 425.195977 4  2A0             Rx   d 8 00 00 00 24 00 00 B0 94
 425.196118 2  359             Rx   d 8 A8 01 00 00 00 2B 40 00
 425.196221 4  470             Rx   d 8 C0 00 00 46 00 00 00 15
 425.196427 4  570             Rx   d 5 87 00 A8 00 80
 425.196689 4  5D0             Rx   d 8 80 22 50 2F 38 57 C0 00
 425.196952 4  5DC             Rx   d 8 F5 00 F0 01 18 08 00 C0
 425.197211 4  651             Rx   d 8 80 22 50 2F 38 57 C0 00
 425.197329 2  35B             Rx   d 8 08 00 00 FF 24 00 0C 00
 425.197478 4  658             Rx   d 8 60 00 01 07 00 AB 00 00
 425.198570 2  367             Rx   d 8 FE 00 00 00 00 00 00 00
 425.199791 2  369             Rx   d 8 BC 01 00 00 00 00 00 00
 425.200013 L3 20              Rx     4 3b 0d a0 00              checksum = 17   header time =   0, full time =   0  SOF =    0.000000   BR = 0      break = 0      0        EOH =    0.000000    EOB =    0.000000     0.000000     0.000000     0.000000    sim = 1    EOF =  425.200013   RBR = 0      HBR = 0.000000  HSO = 0         RSO = 0
 425.200865 L5 12              Rx     6 cf 80 88 88 fe ff        checksum = 0d   header time =   0, full time =   0  SOF =    0.000000   BR = 0      break = 0      0        EOH =    0.000000    EOB =    0.000000     0.000000     0.000000     0.000000     0.000000     0.000000    sim = 1    EOF =  425.200865   RBR = 0      HBR = 0.000000  HSO = 0         RSO = 0
 425.200986 L7 15              Rx     6 03 00 00 0f 00 00        checksum = 98   header time =   0, full time =   0  SOF =    0.000000   BR = 0      break = 0      0        EOH =    0.000000    EOB =    0.000000     0.000000     0.000000     0.000000     0.000000     0.000000    sim = 1    EOF =  425.200986   RBR = 0      HBR = 0.000000  HSO = 0         RSO = 0
 425.200993    evAnalog_07  := 13.331
 425.201002 2  527             Rx   d 8 10 01 00 00 72 70 70 08
 425.202183 2  651             Rx   d 8 80 22 50 2F 38 57 C0 00
 425.202443 1  C2              Rx   d 8 00 80 00 80 E6 32 00 CD
 425.203403 2  658             Rx   d 8 60 00 01 07 00 AB 00 00
 425.203878 1  280             Rx   d 8 41 67 00 00 67 00 16 16
 425.204127 1  380             Rx   d 8 40 68 00 00 A0 00 00 E0
 425.204127 4  280             Rx   d 8 41 67 00 00 67 00 16 16
 425.204368 1  1A0             Rx   d 8 00 40 00 00 FE FE 00 1C
 425.204607 1  288             Rx   d 8 8F FF D4 00 00 00 27 65
 425.204636 4  1A0             Rx   d 8 00 40 00 00 FE FE 00 1C
 425.204636 2  289             Rx   d 4 E2 02 E0 00
 425.204851 1  480             Rx   d 8 84 2C 00 00 00 88 10 30
 425.204869 4  288             Rx   d 8 8F FF D4 00 00 00 27 65
 425.205089 1  488             Rx   d 8 0F 16 67 7F FE FF 00 00
 425.205115 4  480             Rx   d 8 84 2C 00 00 00 88 10 30
 425.205259 1  38A             Rx   d 4 E2 02 E0 00
 425.205506 1  48A             Rx   d 8 90 00 00 00 00 00 00 90
 425.205752 1  48C             Rx   d 8 05 05 00 00 00 00 00 00
 425.205766 4  48A             Rx   d 8 90 00 00 00 00 00 00 90
 425.205886 1  3D0             Rx   d 2 00 00
 425.206012 4  48C             Rx   d 8 05 05 00 00 00 00 00 00
 425.206143 1  4A0             Rx   d 8 00 00 00 00 00 00 00 00
 425.206143 4  3D0             Rx   d 2 00 00
 425.206258 Li 11              Rx     2 00 c6                    checksum = 39   header time =   0, full time =   0  SOF =    0.000000   BR = 0      break = 0      0        EOH =    0.000000    EOB =    0.000000     0.000000    sim = 1    EOF =  425.206258   RBR = 0      HBR = 0.000000  HSO = 0         RSO = 0
 425.206386 1  540             Rx   d 8 00 00 FF 00 FF 00 20 00
 425.206631 1  2A0             Rx   d 8 00 00 00 24 00 00 C0 E4
 425.206648 4  540             Rx   d 8 00 00 FF 00 FF 00 20 00
 425.206870 1  588             Rx   d 8 E9 00 7F 00 FF 80 00 56
 425.206894 4  2A0             Rx   d 8 00 00 00 24 00 00 C0 E4
 425.207112 1  5A0             Rx   d 8 7D 00 00 E0 00 00 00 AB
 425.207132 4  588             Rx   d 8 E9 00 7F 00 FF 80 00 56
 425.207358 1  5E0             Rx   d 8 00 00 34 00 00 00 84 00
 425.207375 4  5A0             Rx   d 8 7D 00 00 E0 00 00 00 AB
 425.207605 1  4A8             Rx   d 8 00 00 03 90 00 00 E0 73
 425.207873 1  1AC             Rx   d 8 1E 0E 00 00 00 00 12 02
 425.207950 4  320             Rx   d 8 10 00 0F 01 00 04 00 80
 425.208149 1  3A0             Rx   d 8 01 0E 00 00 00 00 00 0F
 425.208393 1  320             Rx   d 8 10 00 0F 01 00 04 00 80
 425.210053 L7 d               Rx     4 00 01 00 00              checksum = f1   header time =   0, full time =   0  SOF =    0.000000   BR = 0      break = 0      0        EOH =    0.000000    EOB =    0.000000     0.000000     0.000000     0.000000    sim = 1    EOF =  425.210053   RBR = 0      HBR = 0.000000  HSO = 0         RSO = 0
 425.210458 L5 30              Rx     5 50 00 11 00 70           checksum = 2e   header time =   0, full time =   0  SOF =    0.000000   BR = 0      break = 0      0        EOH =    0.000000    EOB =    0.000000     0.000000     0.000000     0.000000     0.000000    sim = 1    EOF =  425.210458   RBR = 0      HBR = 0.000000  HSO = 0         RSO = 0
 425.210966    evAnalog_07  := 13.361
 425.212445 1  C2              Rx   d 8 00 80 00 80 E6 42 00 BD
 425.213873 1  280             Rx   d 8 41 67 00 00 67 00 16 16
 425.214122 1  380             Rx   d 8 40 68 00 00 A0 00 00 E0
 425.214122 4  280             Rx   d 8 41 67 00 00 67 00 16 16
 425.214287 1  50              Rx   d 4 00 B0 F0 40
 425.214531 1  1A0             Rx   d 8 00 40 00 00 FE FE 00 1D
 425.214775 1  488             Rx   d 8 1F 16 67 7F FE FF 00 10
 425.214794 4  1A0             Rx   d 8 00 40 00 00 FE FE 00 1D
 425.214964 4  50              Rx   d 4 00 B0 F0 40
 425.215028 1  4A0             Rx   d 8 00 00 00 00 00 00 00 00
 425.215275 1  540             Rx   d 8 10 00 FF 00 FF 00 20 00
 425.215515 1  2A0             Rx   d 8 00 00 00 24 00 00 D0 F4
 425.215538 4  540             Rx   d 8 10 00 FF 00 FF 00 20 00
 425.215779 4  2A0             Rx   d 8 00 00 00 24 00 00 D0 F4
 425.216641 1  497             Rx   d 8 00 00 00 00 74 00 00 00
 425.217094 L7 e            TransmErr    header time =   0, full time =   0  SOF =    0.000000   BR = 0      break = 0      0        EOH =    0.000000   HBR = 0.000000  HSO = 0
 425.217875 2  497             Rx   d 8 00 00 00 00 74 00 00 00
 425.219995 2  3E1             Rx   d 8 00 00 34 00 00 00 84 00
 425.220494 L5 31              Rx     5 08 00 00 00 00           checksum = f7   header time =   0, full time =   0  SOF =    0.000000   BR = 0      break = 0      0        EOH =    0.000000    EOB =    0.000000     0.000000     0.000000     0.000000     0.000000    sim = 1    EOF =  425.220494   RBR = 0      HBR = 0.000000  HSO = 0         RSO = 0
 425.220928    evAnalog_07  := 13.331
 425.221020    evAnalog_08  := 13.361
 425.222444 1  C2              Rx   d 8 00 80 00 80 E6 52 00 AD
 425.223890 1  280             Rx   d 8 41 67 00 00 67 00 16 16
 425.224140 1  380             Rx   d 8 40 68 00 00 A0 00 00 E0
 425.224140 4  280             Rx   d 8 41 67 00 00 67 00 16 16
 425.224380 1  1A0             Rx   d 8 00 40 00 00 FE FE 00 1E
 425.224617 1  288             Rx   d 8 8F FF D4 00 00 00 27 65
 425.224646 4  1A0             Rx   d 8 00 40 00 00 FE FE 00 1E
 425.224646 2  289             Rx   d 4 F2 02 F0 00
 425.224862 1  480             Rx   d 8 84 2C 00 00 00 88 10 30
 425.224880 4  288             Rx   d 8 8F FF D4 00 00 00 27 65
 425.225101 1  488             Rx   d 8 2F 16 67 7F FE FF 00 20
 425.225126 4  480             Rx   d 8 84 2C 00 00 00 88 10 30
 425.225267 1  38A             Rx   d 4 F2 02 F0 00
 425.225512 1  48A             Rx   d 8 A0 00 00 00 00 00 00 A0
 425.225770 1  4A0             Rx   d 8 00 00 00 00 00 00 00 00
 425.225770 4  48A             Rx   d 8 A0 00 00 00 00 00 00 A0
 425.225899 1  3D0             Rx   d 2 00 00
 425.226046 4  3D0             Rx   d 2 00 00
 425.226146 1  2A0             Rx   d 8 00 00 00 24 00 00 E0 C4
 425.226392 1  540             Rx   d 8 20 00 FF 00 FF 00 20 00
 425.226403 4  2A0             Rx   d 8 00 00 00 24 00 00 E0 C4
 425.226630 1  588             Rx   d 8 E9 00 7F 00 FF 80 00 56
 425.226655 4  540             Rx   d 8 20 00 FF 00 FF 00 20 00
 425.226873 1  5A0             Rx   d 8 7D 00 00 F0 00 00 00 AB
 425.226893 4  588             Rx   d 8 E9 00 7F 00 FF 80 00 56
 425.227119 1  5E0             Rx   d 8 00 00 34 00 00 00 84 00
 425.227135 4  5A0             Rx   d 8 7D 00 00 F0 00 00 00 AB
 425.227154 Li 29              Rx     4 00 c6 00 00              checksum = 39   header time =   0, full time =   0  SOF =    0.000000   BR = 0      break = 0      0        EOH =    0.000000    EOB =    0.000000     0.000000     0.000000     0.000000    sim = 1    EOF =  425.227154   RBR = 0      HBR = 0.000000  HSO = 0         RSO = 0
 425.227369 1  4A8             Rx   d 8 00 00 03 90 00 00 F0 63
 425.227644 1  1AC             Rx   d 8 1F 0F 00 00 00 00 12 02
 425.227922 1  3A0             Rx   d 8 00 0F 00 00 00 00 00 0F
 425.228049 4  320             Rx   d 8 10 00 0F 01 00 05 00 80
 425.228308 1  320             Rx   d 8 10 00 0F 01 00 05 00 80
 425.228320 4  420             Rx   d 8 84 70 70 00 00 00 FF 04
 425.228579 1  420             Rx   d 8 84 70 70 00 00 00 FF 04
 425.228579 4  5D2             Rx   d 8 02 52 30 30 30 30 30 32
 425.228826 1  5D2             Rx   d 8 02 52 30 30 30 30 30 32
 425.228840 4  621             Rx   d 8 00 8B 01 0F 81 00 64 00
 425.229234 L3 1c              Rx     2 0d 00                    checksum = f2   header time =   0, full time =   0  SOF =    0.000000   BR = 0      break = 0      0        EOH =    0.000000    EOB =    0.000000     0.000000    sim = 1    EOF =  425.229234   RBR = 0      HBR = 0.000000  HSO = 0         RSO = 0
 425.229746 2  65F             Rx   d 8 02 52 30 30 30 30 30 32
 425.230091 L5 22              Rx     4 01 29 84 00              checksum = 51   header time =   0, full time =   0  SOF =    0.000000   BR = 0      break = 0      0        EOH =    0.000000    EOB =    0.000000     0.000000     0.000000     0.000000    sim = 1    EOF =  425.230091   RBR = 0      HBR = 0.000000  HSO = 0         RSO = 0
 425.230977 2  421             Rx   d 8 0B 01 00 01 00 00 00 00
 425.231138    evAnalog_07  := 13.361
 425.231748 L7 16              Rx     6 2f ff 00 40 ff ff        checksum = b9   header time =   0, full time =   0  SOF =    0.000000   BR = 0      break = 0      0        EOH =    0.000000    EOB =    0.000000     0.000000     0.000000     0.000000     0.000000     0.000000    sim = 1    EOF =  425.231748   RBR = 0      HBR = 0.000000  HSO = 0         RSO = 0
 425.232178 2  621             Rx   d 8 00 8B 01 0F 81 00 64 00
 425.232442 1  C2              Rx   d 8 00 80 00 80 E6 62 00 9D
 425.233896 1  280             Rx   d 8 41 67 00 00 67 00 16 16
 425.234145 1  380             Rx   d 8 40 68 00 00 A0 00 00 E0
 425.234145 4  280             Rx   d 8 41 67 00 00 67 00 16 16
 425.234388 1  1A0             Rx   d 8 00 40 00 00 FE FE 00 1F
 425.234631 1  488             Rx   d 8 3F 16 67 7F FE FF 00 30
 425.234654 4  1A0             Rx   d 8 00 40 00 00 FE FE 00 1F
 425.234853 4  50              Rx   d 4 00 B0 F0 40
 425.234884 1  4A0             Rx   d 8 00 00 00 00 00 00 00 00
 425.234998 2  470             Rx   d 8 80 00 00 46 00 00 00 15
 425.235130 1  540             Rx   d 8 30 00 FF 00 FF 00 20 00
 425.235370 1  2A0             Rx   d 8 00 00 00 24 00 00 F0 D4
 425.235393 4  540             Rx   d 8 30 00 FF 00 FF 00 20 00
 425.235618 1  550             Rx   d 8 00 80 80 00 00 00 00 00
 425.235634 4  2A0             Rx   d 8 00 00 00 24 00 00 F0 D4
 425.235840 2  151             Rx   d 4 00 B0 F0 40
 425.235858 1  58C             Rx   d 8 90 80 00 00 FE 10 00 E2
 425.235882 4  550             Rx   d 8 00 80 80 00 00 00 00 00
 425.236031 1  50              Rx   d 4 00 B0 00 B0
 425.236125 4  58C             Rx   d 8 90 80 00 00 FE 10 00 E2
 425.236284 Li 12              Rx     2 29 00                    checksum = d6   header time =   0, full time =   0  SOF =    0.000000   BR = 0      break = 0      0        EOH =    0.000000    EOB =    0.000000     0.000000    sim = 1    EOF =  425.236284   RBR = 0      HBR = 0.000000  HSO = 0         RSO = 0
 425.236711 2  531             Rx   d 4 00 00 20 20
 425.237911 2  58C             Rx   d 8 90 80 00 00 FE 10 00 E2
 425.239234 L5 1e              Rx     2 00 00                    checksum = ff   header time =   0, full time =   0  SOF =    0.000000   BR = 0      break = 0      0        EOH =    0.000000    EOB =    0.000000     0.000000    sim = 1    EOF =  425.239234   RBR = 0      HBR = 0.000000  HSO = 0         RSO = 0
 425.240509 L7 18              Rx     4 20 ff ff ff              checksum = 07   header time =   0, full time =   0  SOF =    0.000000   BR = 0      break = 0      0        EOH =    0.000000    EOB =    0.000000     0.000000     0.000000     0.000000    sim = 1    EOF =  425.240509   RBR = 0      HBR = 0.000000  HSO = 0         RSO = 0
 425.240803    evAnalog_07  := 13.361
 425.242439 1  C2              Rx   d 8 00 80 00 80 E6 72 00 8D
 425.243908 1  280             Rx   d 8 41 67 00 00 67 00 16 16
 425.244153 1  380             Rx   d 8 40 68 00 00 A0 00 00 E0
 425.244167 4  280             Rx   d 8 41 67 00 00 67 00 16 16
 425.244401 1  1A0             Rx   d 8 00 40 00 00 FE FE 00 10
 425.244639 1  288             Rx   d 8 8F FF D4 00 00 00 27 65
 425.244666 2  289             Rx   d 4 02 02 00 00
 425.244666 4  1A0             Rx   d 8 00 40 00 00 FE FE 00 10
 425.244883 1  390             Rx   d 8 03 00 58 00 40 00 00 00
 425.244907 4  288             Rx   d 8 8F FF D4 00 00 00 27 65
 425.245053 1  38A             Rx   d 4 02 02 00 00
 425.245151 4  470             Rx   d 8 C0 00 00 46 00 00 00 15
 425.245300 1  392             Rx   d 8 08 01 00 01 00 00 00 00
 425.245545 1  480             Rx   d 8 84 2C 00 00 00 88 10 30
 425.245783 1  488             Rx   d 8 4F 16 67 7F FE FF 00 40
 425.245806 4  480             Rx   d 8 84 2C 00 00 00 88 10 30
 425.245917 1  3D0             Rx   d 2 00 00
 425.246064 4  3D0             Rx   d 2 00 00
 425.246163 1  48A             Rx   d 8 B0 00 00 00 00 00 00 B0
 425.246346 Li 3a              Rx     2 00 00                    checksum = 45   header time =   0, full time =   0  SOF =    0.000000   BR = 0      break = 0      0        EOH =    0.000000    EOB =    0.000000     0.000000    sim = 1    EOF =  425.246346   RBR = 0      HBR = 0.000000  HSO = 0         RSO = 0
 425.246409 1  48C             Rx   d 8 06 06 00 00 00 00 00 00
 425.246422 4  48A             Rx   d 8 B0 00 00 00 00 00 00 B0
 425.246662 1  4A0             Rx   d 8 00 00 00 00 00 00 00 00
 425.246675 4  48C             Rx   d 8 06 06 00 00 00 00 00 00
 425.246906 1  540             Rx   d 8 40 00 FF 00 FF 00 20 00
 425.247153 1  2A0             Rx   d 8 00 00 00 24 00 00 00 24
 425.247169 4  540             Rx   d 8 40 00 FF 00 FF 00 20 00
 425.247337 1  570             Rx   d 5 87 00 A8 00 80
 425.247415 4  2A0             Rx   d 8 00 00 00 24 00 00 00 24
 425.247575 1  588             Rx   d 8 E9 00 7F 00 FF 80 00 56
 425.247823 1  5A0             Rx   d 8 7D 00 00 00 00 00 00 AB
 425.247823 4  588             Rx   d 8 E9 00 7F 00 FF 80 00 56
 425.248056 1  5D0             Rx   d 8 80 22 50 2F 38 57 C0 00
 425.248068 4  320             Rx   d 8 10 00 0F 01 00 06 00 80
 425.248300 1  4A8             Rx   d 8 0B 80 03 90 00 00 00 18
 425.248312 4  5A0             Rx   d 8 7D 00 00 00 00 00 00 AB
 425.248540 1  5D8             Rx   d 8 15 0D 20 01 18 00 00 03
 425.248786 1  1AC             Rx   d 8 10 00 00 00 00 00 12 02
 425.248820 L3 1f              Rx     2 eb 00                    checksum = 14   header time =   0, full time =   0  SOF =    0.000000   BR = 0      break = 0      0        EOH =    0.000000    EOB =    0.000000     0.000000    sim = 1    EOF =  425.248820   RBR = 0      HBR = 0.000000  HSO = 0         RSO = 0
 425.249028 1  320             Rx   d 8 10 00 0F 01 00 06 00 80
 425.249237 L5 1d              Rx     2 00 00                    checksum = ff   header time =   0, full time =   0  SOF =    0.000000   BR = 0      break = 0      0        EOH =    0.000000    EOB =    0.000000     0.000000    sim = 1    EOF =  425.249237   RBR = 0      HBR = 0.000000  HSO = 0         RSO = 0
 425.249277 1  3A0             Rx   d 8 0F 00 00 00 00 00 00 0F
 425.249515 1  5DC             Rx   d 8 F5 00 F0 01 18 08 00 C0
 425.249763 1  5B7             Rx   d 8 00 00 00 00 00 00 00 00
 425.250009 1  5E0             Rx   d 8 00 00 34 00 00 00 84 00
 425.250854    evAnalog_07  := 13.361
 425.250883 L7 15              Rx     6 03 00 00 0f 00 00        checksum = 98   header time =   0, full time =   0  SOF =    0.000000   BR = 0      break = 0      0        EOH =    0.000000    EOB =    0.000000     0.000000     0.000000     0.000000     0.000000     0.000000    sim = 1    EOF =  425.250883   RBR = 0      HBR = 0.000000  HSO = 0         RSO = 0
 425.252443 1  C2              Rx   d 8 00 80 00 80 E6 82 00 7D
 425.253870 1  280             Rx   d 8 41 67 00 00 67 00 16 16
 425.254118 1  380             Rx   d 8 40 68 00 00 A0 00 00 E0
 425.254118 4  280             Rx   d 8 41 67 00 00 67 00 16 16
 425.254285 1  50              Rx   d 4 00 B0 10 A0
 425.254529 1  1A0             Rx   d 8 00 40 00 00 FE FE 00 11
 425.254764 1  488             Rx   d 8 5F 16 67 7F FE FF 00 50
 425.254791 4  1A0             Rx   d 8 00 40 00 00 FE FE 00 11
 425.254960 4  50              Rx   d 4 00 B0 10 A0
 425.255017 1  4A0             Rx   d 8 00 00 00 00 00 00 00 00
 425.255259 1  540             Rx   d 8 50 00 FF 00 FF 00 20 00
 425.255412 2  3C1             Rx   d 2 00 00
 425.255503 1  2A0             Rx   d 8 00 00 00 24 00 00 10 34
 425.255519 4  540             Rx   d 8 50 00 FF 00 FF 00 20 00
 425.255764 4  2A0             Rx   d 8 00 00 00 24 00 00 10 34
 425.255790 1  5DE             Rx   d 5 00 00 00 00 00
 425.256291 Li 11              Rx     2 29 00                    checksum = d6   header time =   0, full time =   0  SOF =    0.000000   BR = 0      break = 0      0        EOH =    0.000000    EOB =    0.000000     0.000000    sim = 1    EOF =  425.256291   RBR = 0      HBR = 0.000000  HSO = 0         RSO = 0
 425.256614 2  555             Rx   d 8 E9 00 7F 00 FF 80 00 56
 425.260203 L5 b               Rx     8 00 00 00 00 00 00 00 00  checksum = 74   header time =   0, full time =   0  SOF =    0.000000   BR = 0      break = 0      0        EOH =    0.000000    EOB =    0.000000     0.000000     0.000000     0.000000     0.000000     0.000000     0.000000     0.000000    sim = 1    EOF =  425.260203   RBR = 0      HBR = 0.000000  HSO = 0         RSO = 0
 425.260480 L7 19              Rx     4 20 ff ff ff              checksum = 46   header time =   0, full time =   0  SOF =    0.000000   BR = 0      break = 0      0        EOH =    0.000000    EOB =    0.000000     0.000000     0.000000     0.000000    sim = 1    EOF =  425.260480   RBR = 0      HBR = 0.000000  HSO = 0         RSO = 0
 425.260804    evAnalog_07  := 13.361
 425.261731 1  394             Rx   d 8 0B 7F 7F 91 7D 00 00 10
 425.261987 4  394             Rx   d 8 0B 7F 7F 91 7D 00 00 10
 425.262439 1  C2              Rx   d 8 00 80 00 80 E6 92 00 6D
 425.263886 1  280             Rx   d 8 41 67 00 00 67 00 16 16
 425.264135 1  380             Rx   d 8 40 68 00 00 A0 00 00 E0
 425.264135 4  280             Rx   d 8 41 67 00 00 67 00 16 16
 425.264377 1  1A0             Rx   d 8 00 40 00 00 FE FE 00 12
 425.264593 2  289             Rx   d 4 12 02 10 00
 425.264615 1  288             Rx   d 8 D9 FF D4 00 00 00 27 65
 425.264640 4  1A0             Rx   d 8 00 40 00 00 FE FE 00 12
 425.264859 1  480             Rx   d 8 C1 2C 00 00 00 88 10 75
 425.264880 4  288             Rx   d 8 D9 FF D4 00 00 00 27 65
 425.265029 1  38A             Rx   d 4 12 02 10 00
 425.265124 4  480             Rx   d 8 C1 2C 00 00 00 88 10 75
 425.265264 1  488             Rx   d 8 6F 16 67 7F FE FF 00 60
 425.265508 1  48A             Rx   d 8 C0 00 00 00 00 00 00 C0
 425.265695 2  2C1             Rx   d 6 00 00 00 00 04 00
 425.265765 1  4A0             Rx   d 8 00 00 00 00 00 00 00 00
 425.265765 4  48A             Rx   d 8 C0 00 00 00 00 00 00 C0
 425.265895 1  3D0             Rx   d 2 00 00
 425.266043 4  3D0             Rx   d 2 00 00
 425.266141 1  2A0             Rx   d 8 00 00 00 24 00 00 20 04
 425.266383 1  540             Rx   d 8 60 00 FF 00 FF 00 20 00
 425.266397 4  2A0             Rx   d 8 00 00 00 24 00 00 20 04
 425.266622 1  588             Rx   d 8 E9 00 7F 00 FF 80 00 56
 425.266644 4  540             Rx   d 8 60 00 FF 00 FF 00 20 00
 425.266775 2  381             Rx   d 6 00 00 FF 00 00 00
 425.266864 1  5A0             Rx   d 8 7D 00 00 10 00 00 00 AB
 425.266882 4  588             Rx   d 8 E9 00 7F 00 FF 80 00 56
 425.267110 1  5E0             Rx   d 8 00 00 34 00 00 00 84 00
 425.267126 4  5A0             Rx   d 8 7D 00 00 10 00 00 00 AB
 425.267170 L7 e            TransmErr    header time =   0, full time =   0  SOF =    0.000000   BR = 0      break = 0      0        EOH =    0.000000   HBR = 0.000000  HSO = 0
 425.267348 1  4A8             Rx   d 8 0B 00 03 90 00 00 10 88
 425.267620 1  1AC             Rx   d 8 10 01 00 00 00 00 13 02
 425.267891 1  3A0             Rx   d 8 0E 01 00 00 00 00 00 0F
 425.267993 Li 2f              Rx     8 60 25 ff 7f 41 19 d0 80  checksum = df   header time =   0, full time =   0  SOF =    0.000000   BR = 0      break = 0      0        EOH =    0.000000    EOB =    0.000000     0.000000     0.000000     0.000000     0.000000     0.000000     0.000000     0.000000    sim = 1    EOF =  425.267993   RBR = 0      HBR = 0.000000  HSO = 0         RSO = 0
 425.268056 4  320             Rx   d 8 10 00 0F 01 00 07 00 80
 425.268066 2  397             Rx   d 8 00 00 00 00 00 00 00 00
 425.268313 1  320             Rx   d 8 10 00 0F 01 00 07 00 80
 425.269128 2  3B5             Rx   d 6 00 00 FF 00 00 00
 425.269908 2  457             Rx   d 3 00 A0 00
 425.270896 L5 12              Rx     6 cf 80 88 88 fe ff        checksum = 0d   header time =   0, full time =   0  SOF =    0.000000   BR = 0      break = 0      0        EOH =    0.000000    EOB =    0.000000     0.000000     0.000000     0.000000     0.000000     0.000000    sim = 1    EOF =  425.270896   RBR = 0      HBR = 0.000000  HSO = 0         RSO = 0
 425.270930    evAnalog_07  := 13.361
 425.270969 2  4B9             Rx   d 6 00 00 FF 00 00 00
 425.271026    evAnalog_08  := 13.39
 425.272020 2  4BD             Rx   d 6 00 00 FF 00 00 00
 425.272437 1  C2              Rx   d 8 00 80 00 80 E6 A2 00 5D
 425.273071 2  571             Rx   d 6 A8 00 00 00 00 00
 425.273876 1  280             Rx   d 8 41 67 00 00 67 00 16 16
 425.274124 1  380             Rx   d 8 40 68 00 00 A0 00 00 E0
 425.274124 4  280             Rx   d 8 41 67 00 00 67 00 16 16
 425.274292 1  50              Rx   d 4 00 B0 20 90
 425.274352 2  5F5             Rx   d 8 00 00 00 00 00 00 00 00
 425.274538 1  1A0             Rx   d 8 00 40 00 00 FE FE 00 13
 425.274772 1  488             Rx   d 8 7F 16 67 7F FE FF 00 70
 425.274803 4  1A0             Rx   d 8 00 40 00 00 FE FE 00 13
 425.275024 1  4A0             Rx   d 8 00 00 00 00 00 00 00 00
 425.275093 4  50              Rx   d 4 00 B0 20 90
 425.275271 1  540             Rx   d 8 70 00 FF 00 FF 00 20 00
 425.275515 1  2A0             Rx   d 8 00 00 00 24 00 00 30 14
 425.275535 4  540             Rx   d 8 70 00 FF 00 FF 00 20 00
 425.275573 2  40B             Rx   d 8 0C 01 06 01 00 00 00 00
 425.275780 4  2A0             Rx   d 8 00 00 00 24 00 00 30 14
 425.276311 Li 36              Rx     2 00 00                    checksum = 89   header time =   0, full time =   0  SOF =    0.000000   BR = 0      break = 0      0        EOH =    0.000000    EOB =    0.000000     0.000000    sim = 1    EOF =  425.276311   RBR = 0      HBR = 0.000000  HSO = 0         RSO = 0
 425.276525 2  64F             Rx   d 5 02 00 00 00 00
 425.277745 2  5B5             Rx   d 8 0E 01 00 00 00 00 00 0F
 425.278797 2  6B4             Rx   d 6 00 00 00 00 00 00
 425.280497 L5 30              Rx     5 50 00 11 00 70           checksum = 2e   header time =   0, full time =   0  SOF =    0.000000   BR = 0      break = 0      0        EOH =    0.000000    EOB =    0.000000     0.000000     0.000000     0.000000     0.000000    sim = 1    EOF =  425.280497   RBR = 0      HBR = 0.000000  HSO = 0         RSO = 0
 425.280688    evAnalog_07  := 13.361
 425.281787 L7 16              Rx     6 2f ff 00 40 ff ff        checksum = b9   header time =   0, full time =   0  SOF =    0.000000   BR = 0      break = 0      0        EOH =    0.000000    EOB =    0.000000     0.000000     0.000000     0.000000     0.000000     0.000000    sim = 1    EOF =  425.281787   RBR = 0      HBR = 0.000000  HSO = 0         RSO = 0
 425.282437 1  C2              Rx   d 8 00 80 00 80 E6 B2 00 4D
 425.283434 7  200             Rx   d 7 5A C0 00 10 00 03 01
 425.283670 1  200             Rx   d 7 5A C0 00 10 00 03 01
 425.283908 1  280             Rx   d 8 41 67 00 00 67 00 16 16
 425.284147 1  288             Rx   d 8 D9 FF D4 00 00 00 27 65
 425.284167 4  280             Rx   d 8 41 67 00 00 67 00 16 16
 425.284393 1  1A0             Rx   d 8 00 40 00 00 FE FE 00 14
 425.284406 4  288             Rx   d 8 D9 FF D4 00 00 00 27 65
 425.284537 2  200             Rx   d 7 5A C0 00 10 00 03 01
 425.284637 1  380             Rx   d 8 40 68 00 00 A0 00 00 E0
 425.284657 4  1A0             Rx   d 8 00 40 00 00 FE FE 00 14
 425.284659 Li 3d           TransmErr    header time =   0, full time =   0  SOF =    0.000000   BR = 0      break = 0      0        EOH =    0.000000   HBR = 0.000000  HSO = 0
 425.284882 1  480             Rx   d 8 C1 2C 00 00 00 88 10 75
 425.285116 1  488             Rx   d 8 8F 16 67 7F FE FF 00 80
 425.285142 4  480             Rx   d 8 C1 2C 00 00 00 88 10 75
 425.285367 1  48A             Rx   d 8 D0 00 00 00 00 00 00 D0
 425.285367 2  289             Rx   d 4 22 02 20 00
 425.285609 1  48C             Rx   d 8 07 07 00 00 00 00 00 00
 425.285625 4  48A             Rx   d 8 D0 00 00 00 00 00 00 D0
 425.285743 1  3D0             Rx   d 2 00 00
 425.285871 4  48C             Rx   d 8 07 07 00 00 00 00 00 00
 425.285913 1  38A             Rx   d 4 22 02 20 00
 425.286005 4  3D0             Rx   d 2 00 00
 425.286166 1  4A0             Rx   d 8 00 00 00 00 00 00 00 00
 425.286412 1  540             Rx   d 8 80 00 FF 00 FF 00 20 00
 425.286559 2  3C3             Rx   d 8 00 80 00 80 E6 B2 00 4D
 425.286655 1  2A0             Rx   d 8 00 00 00 24 00 00 40 64
 425.286684 4  540             Rx   d 8 80 00 FF 00 FF 00 20 00
 425.286893 1  588             Rx   d 8 E9 00 7F 00 FF 80 00 56
 425.286926 4  2A0             Rx   d 8 00 00 00 24 00 00 40 64
 425.287135 1  5A0             Rx   d 8 7D 00 00 20 00 00 00 AB
 425.287164 4  588             Rx   d 8 E9 00 7F 00 FF 80 00 56
 425.287382 1  5E0             Rx   d 8 00 00 34 00 00 00 84 00
 425.287407 4  5A0             Rx   d 8 7D 00 00 20 00 00 00 AB
 425.287621 1  4A8             Rx   d 8 2D 00 03 90 00 00 20 9E
 425.287769 2  470             Rx   d 8 80 00 00 46 00 00 00 15
 425.287890 1  1AC             Rx   d 8 13 02 00 00 00 00 13 02
 425.287905 4  320             Rx   d 8 10 00 0F 01 00 08 00 80
 425.288162 1  3A0             Rx   d 8 0D 02 00 00 00 00 00 0F
 425.288406 1  320             Rx   d 8 10 00 0F 01 00 08 00 80
 425.288650 2  531             Rx   d 4 00 00 30 30
 425.289541 2  5C1             Rx   d 4 00 00 00 00
 425.289733 4  5C1             Rx   d 4 00 00 00 00
 425.290491 L5 31              Rx     5 08 00 00 00 00           checksum = f7   header time =   0, full time =   0  SOF =    0.000000   BR = 0      break = 0      0        EOH =    0.000000    EOB =    0.000000     0.000000     0.000000     0.000000     0.000000    sim = 1    EOF =  425.290491   RBR = 0      HBR = 0.000000  HSO = 0         RSO = 0
 425.290606 L7 17              Rx     4 20 ff ff ff              checksum = 48   header time =   0, full time =   0  SOF =    0.000000   BR = 0      break = 0      0        EOH =    0.000000    EOB =    0.000000     0.000000     0.000000     0.000000    sim = 1    EOF =  425.290606   RBR = 0      HBR = 0.000000  HSO = 0         RSO = 0
 425.290808    evAnalog_07  := 13.361
 425.292432 1  C2              Rx   d 8 00 80 00 80 E6 C2 00 3D
 425.293862 1  280             Rx   d 8 41 67 00 00 67 00 16 16
 425.294111 1  380             Rx   d 8 40 68 00 00 A0 00 00 E0
 425.294111 4  280             Rx   d 8 41 67 00 00 67 00 16 16
 425.294350 1  1A0             Rx   d 8 00 40 00 00 FE FE 00 15
 425.294521 1  50              Rx   d 4 00 B0 30 80
 425.294611 4  1A0             Rx   d 8 00 40 00 00 FE FE 00 15
 425.294756 1  488             Rx   d 8 9F 16 67 7F FE FF 00 90
 425.294892 4  50              Rx   d 4 00 B0 30 80
 425.295008 1  4A0             Rx   d 8 00 00 00 00 00 00 00 00
 425.295165 4  35F             Rx   d 8 28 00 00 00 00 00 00 00
 425.295251 1  540             Rx   d 8 90 00 FF 00 FF 00 20 00
 425.295435 4  470             Rx   d 8 C0 00 00 46 00 00 00 15
 425.295495 1  2A0             Rx   d 8 00 00 00 24 00 00 50 74
 425.295678 4  540             Rx   d 8 90 00 FF 00 FF 00 20 00
 425.295862 4  570             Rx   d 5 87 00 A8 00 80
 425.296082 2  359             Rx   d 8 A8 01 00 00 00 2B 40 00
 425.296105 4  2A0             Rx   d 8 00 00 00 24 00 00 50 74
 425.296342 4  5D0             Rx   d 8 80 22 50 2F 38 57 C0 00
 425.296604 4  5DC             Rx   d 8 F5 00 F0 01 18 08 00 C0
 425.296863 4  651             Rx   d 8 80 22 50 2F 38 57 C0 00
 425.297123 4  655             Rx   d 8 F5 00 F0 01 18 08 40 C0
 425.297293 2  35B             Rx   d 8 08 00 00 FF 24 00 0C 00
 425.297391 4  658             Rx   d 8 60 00 01 07 00 AB 00 00
 425.298199 Li 31              Rx     8 fe fe fe ff ff ff ff ff  checksum = 51   header time =   0, full time =   0  SOF =    0.000000   BR = 0      break = 0      0        EOH =    0.000000    EOB =    0.000000     0.000000     0.000000     0.000000     0.000000     0.000000     0.000000     0.000000    sim = 1    EOF =  425.298199   RBR = 0      HBR = 0.000000  HSO = 0         RSO = 0
 425.298513 2  369             Rx   d 8 BC 01 00 00 00 00 00 00
 425.299694 2  651             Rx   d 8 80 22 50 2F 38 57 C0 00
 425.300112 L3 20              Rx     4 3b 0e a0 00              checksum = 16   header time =   0, full time =   0  SOF =    0.000000   BR = 0      break = 0      0        EOH =    0.000000    EOB =    0.000000     0.000000     0.000000     0.000000    sim = 1    EOF =  425.300112   RBR = 0      HBR = 0.000000  HSO = 0         RSO = 0
 425.300227 L5 22              Rx     4 02 29 84 00              checksum = 50   header time =   0, full time =   0  SOF =    0.000000   BR = 0      break = 0      0        EOH =    0.000000    EOB =    0.000000     0.000000     0.000000     0.000000    sim = 1    EOF =  425.300227   RBR = 0      HBR = 0.000000  HSO = 0         RSO = 0
 425.300456 2  653             Rx   d 3 81 01 84
 425.300665    evAnalog_07  := 13.331
 425.300943 L7 15              Rx     6 03 00 00 0f 00 00        checksum = 98   header time =   0, full time =   0  SOF =    0.000000   BR = 0      break = 0      0        EOH =    0.000000    EOB =    0.000000     0.000000     0.000000     0.000000     0.000000     0.000000    sim = 1    EOF =  425.300943   RBR = 0      HBR = 0.000000  HSO = 0         RSO = 0
 425.301636 2  655             Rx   d 8 F5 00 F0 01 18 08 40 C0
 425.302432 1  C2              Rx   d 8 00 80 00 80 E6 D2 00 2D
 425.302868 2  658             Rx   d 8 60 00 01 07 05 AB 00 00
 425.303886 1  280             Rx   d 8 41 67 00 00 67 00 16 16
 425.304135 1  380             Rx   d 8 40 68 00 00 A0 00 00 E0
 425.304135 4  280             Rx   d 8 41 67 00 00 67 00 16 16
 425.304375 1  1A0             Rx   d 8 00 40 00 00 FE FE 00 16
 425.304578 2  289             Rx   d 4 32 02 30 00
 425.304613 1  288             Rx   d 8 D9 FF D4 00 00 00 27 65
 425.304636 4  1A0             Rx   d 8 00 40 00 00 FE FE 00 16
 425.304779 1  38A             Rx   d 4 32 02 30 00
 425.304874 4  288             Rx   d 8 D9 FF D4 00 00 00 27 65
 425.305023 1  480             Rx   d 8 C1 2C 00 00 00 88 10 75
 425.305257 1  488             Rx   d 8 AF 16 67 7F FE FF 00 A0
 425.305284 4  480             Rx   d 8 C1 2C 00 00 00 88 10 75
 425.305504 1  48A             Rx   d 8 E0 00 00 00 00 00 00 E0
 425.305760 1  4A0             Rx   d 8 00 00 00 00 00 00 00 00
 425.305760 4  48A             Rx   d 8 E0 00 00 00 00 00 00 E0
 425.305891 1  3D0             Rx   d 2 00 00
 425.306038 4  3D0             Rx   d 2 00 00
 425.306133 1  2A0             Rx   d 8 00 00 00 24 00 00 60 44
 425.306375 1  540             Rx   d 8 A0 00 FF 00 FF 00 20 00
 425.306379 Li 11              Rx     2 29 00                    checksum = d6   header time =   0, full time =   0  SOF =    0.000000   BR = 0      break = 0      0        EOH =    0.000000    EOB =    0.000000     0.000000    sim = 1    EOF =  425.306379   RBR = 0      HBR = 0.000000  HSO = 0         RSO = 0
 425.306385 4  2A0             Rx   d 8 00 00 00 24 00 00 60 44
 425.306613 1  588             Rx   d 8 E9 00 7F 00 FF 80 00 56
 425.306635 4  540             Rx   d 8 A0 00 FF 00 FF 00 20 00
 425.306855 1  5A0             Rx   d 8 7D 00 00 30 00 00 00 AB
 425.306873 4  588             Rx   d 8 E9 00 7F 00 FF 80 00 56
 425.307102 1  5E0             Rx   d 8 00 00 34 00 00 00 84 00
 425.307117 4  5A0             Rx   d 8 7D 00 00 30 00 00 00 AB
 425.307344 1  4A8             Rx   d 8 22 00 03 90 00 00 30 81
 425.307616 1  1AC             Rx   d 8 13 03 00 00 00 00 12 02
 425.307888 1  3A0             Rx   d 8 0C 03 00 00 00 00 00 0F
 425.308066 4  320             Rx   d 8 10 00 0F 01 00 09 00 80
 425.308321 1  320             Rx   d 8 10 00 0F 01 00 09 00 80
 425.309671 L7 d               Rx     4 00 01 00 00              checksum = f1   header time =   0, full time =   0  SOF =    0.000000   BR = 0      break = 0      0        EOH =    0.000000    EOB =    0.000000     0.000000     0.000000     0.000000    sim = 1    EOF =  425.309671   RBR = 0      HBR = 0.000000  HSO = 0         RSO = 0
 425.310168 L5 10              Rx     8 0b 00 70 00 00 00 01 00  checksum = 33   header time =   0, full time =   0  SOF =    0.000000   BR = 0      break = 0      0        EOH =    0.000000    EOB =    0.000000     0.000000     0.000000     0.000000     0.000000     0.000000     0.000000     0.000000    sim = 1    EOF =  425.310168   RBR = 0      HBR = 0.000000  HSO = 0         RSO = 0
 425.310786    evAnalog_07  := 13.361
 425.312431 1  C2              Rx   d 8 00 80 00 80 E6 E2 00 1D
 425.313841 1  280             Rx   d 8 41 67 00 00 67 00 16 16
 425.314090 1  380             Rx   d 8 40 68 00 00 A0 00 00 E0
 425.314090 4  280             Rx   d 8 41 67 00 00 67 00 16 16
 425.314258 1  50              Rx   d 4 00 B0 40 F0
 425.314503 1  1A0             Rx   d 8 00 40 00 00 FE FE 00 17
 425.314738 1  488             Rx   d 8 BF 16 67 7F FE FF 00 B0
 425.314768 4  1A0             Rx   d 8 00 40 00 00 FE FE 00 17
 425.314940 4  50              Rx   d 4 00 B0 40 F0
 425.314990 1  4A0             Rx   d 8 00 00 00 00 00 00 00 00
 425.315235 1  540             Rx   d 8 B0 00 FF 00 FF 00 20 00
 425.315479 1  2A0             Rx   d 8 00 00 00 24 00 00 70 54
 425.315497 4  540             Rx   d 8 B0 00 FF 00 FF 00 20 00
 425.315741 4  2A0             Rx   d 8 00 00 00 24 00 00 70 54
 425.316345 1  497             Rx   d 8 00 00 00 00 74 00 00 00
 425.317173 L7 e            TransmErr    header time =   0, full time =   0  SOF =    0.000000   BR = 0      break = 0      0        EOH =    0.000000   HBR = 0.000000  HSO = 0
 425.317515 Li 35              Rx     8 10 3a 00 01 00 00 00 00  checksum = be   header time =   0, full time =   0  SOF =    0.000000   BR = 0      break = 0      0        EOH =    0.000000    EOB =    0.000000     0.000000     0.000000     0.000000     0.000000     0.000000     0.000000     0.000000    sim = 1    EOF =  425.317515   RBR = 0      HBR = 0.000000  HSO = 0         RSO = 0
 425.317579 2  497             Rx   d 8 00 00 00 00 74 00 00 00
 425.319245 L5 21              Rx     3 00 00 00                 checksum = ff   header time =   0, full time =   0  SOF =    0.000000   BR = 0      break = 0      0        EOH =    0.000000    EOB =    0.000000     0.000000     0.000000    sim = 1    EOF =  425.319245   RBR = 0      HBR = 0.000000  HSO = 0         RSO = 0
 425.320008 2  3E1             Rx   d 8 00 00 34 00 00 00 84 00
 425.320723    evAnalog_07  := 13.331
 425.320815    evAnalog_08  := 13.361
 425.321268 2  40C             Rx   d 8 15 01 01 01 00 00 00 00
 425.322433 2  5E1             Rx   d 7 80 00 00 00 00 00 00
 425.322433 1  C2              Rx   d 8 00 80 00 80 E6 F2 00 0D
 425.323903 1  280             Rx   d 8 41 67 00 00 67 00 16 16
 425.324151 1  1A0             Rx   d 8 00 40 00 00 FE FE 00 18
 425.324151 4  280             Rx   d 8 41 67 00 00 67 00 16 16
 425.324385 1  288             Rx   d 8 D9 FF D4 00 00 00 27 65
 425.324408 4  1A0             Rx   d 8 00 40 00 00 FE FE 00 18
 425.324630 1  380             Rx   d 8 40 68 00 00 A0 00 00 E0
 425.324646 4  288             Rx   d 8 D9 FF D4 00 00 00 27 65
 425.324670 2  289             Rx   d 4 42 02 40 00
 425.324874 1  480             Rx   d 8 C1 2C 00 00 00 88 10 75
 425.325108 1  488             Rx   d 8 CF 16 67 7F FE FF 00 C0
 425.325136 4  480             Rx   d 8 C1 2C 00 00 00 88 10 75
 425.325274 1  38A             Rx   d 4 42 02 40 00
 425.325521 1  48A             Rx   d 8 F0 00 00 00 00 00 00 F0
 425.325769 1  48C             Rx   d 8 08 08 00 00 00 00 00 00
 425.325781 4  48A             Rx   d 8 F0 00 00 00 00 00 00 F0
 425.325904 1  3D0             Rx   d 2 00 00
 425.326031 4  48C             Rx   d 8 08 08 00 00 00 00 00 00
 425.326161 1  4A0             Rx   d 8 00 00 00 00 00 00 00 00
 425.326161 4  3D0             Rx   d 2 00 00
 425.326398 1  540             Rx   d 8 C0 00 FF 00 FF 00 20 00
 425.326642 1  2A0             Rx   d 8 00 00 00 24 00 00 80 A4
 425.326657 4  540             Rx   d 8 C0 00 FF 00 FF 00 20 00
 425.326879 1  580             Rx   d 8 8C 00 00 0F 12 4D 44 0C
 425.326902 4  2A0             Rx   d 8 00 00 00 24 00 00 80 A4
 425.327117 1  588             Rx   d 8 E9 00 7F 00 FF 80 00 56
 425.327138 4  580             Rx   d 8 8C 00 00 0F 12 4D 44 0C
 425.327197 Li 29              Rx     4 00 c6 00 00              checksum = 39   header time =   0, full time =   0  SOF =    0.000000   BR = 0      break = 0      0        EOH =    0.000000    EOB =    0.000000     0.000000     0.000000     0.000000    sim = 1    EOF =  425.327197   RBR = 0      HBR = 0.000000  HSO = 0         RSO = 0
 425.327359 1  58F             Rx   d 8 00 F0 FF 7F 00 00 00 13
 425.327376 4  588             Rx   d 8 E9 00 7F 00 FF 80 00 56
 425.327606 1  5A0             Rx   d 8 7D 00 00 40 00 00 00 AB
 425.327618 4  58F             Rx   d 8 00 F0 FF 7F 00 00 00 13
 425.327852 1  5E0             Rx   d 8 00 00 34 00 00 00 84 00
 425.327868 4  5A0             Rx   d 8 7D 00 00 40 00 00 00 AB
 425.328092 1  4A8             Rx   d 8 0B 00 03 90 00 00 40 D8
 425.328113 4  320             Rx   d 8 10 00 0F 01 00 0A 00 80
 425.328361 1  1AC             Rx   d 8 14 04 00 00 00 00 12 02
 425.328389 4  51A             Rx   d 8 01 00 00 00 00 80 56 02
 425.328605 1  320             Rx   d 8 10 00 0F 01 00 0A 00 80
 425.328655 4  520             Rx   d 8 50 52 01 8B 01 00 00 00
 425.328853 1  3A0             Rx   d 8 0B 04 00 00 00 00 00 0F
 425.328939 4  5F3             Rx   d 8 00 00 9F 01 00 00 00 00
 425.329096 1  51A             Rx   d 8 01 00 00 00 00 80 56 02
 425.329202 4  621             Rx   d 8 00 8B 01 0F 81 00 64 00
 425.329235 L3 1c              Rx     2 0e 00                    checksum = f1   header time =   0, full time =   0  SOF =    0.000000   BR = 0      break = 0      0        EOH =    0.000000    EOB =    0.000000     0.000000    sim = 1    EOF =  425.329235   RBR = 0      HBR = 0.000000  HSO = 0         RSO = 0
 425.329338 1  520             Rx   d 8 50 52 01 8B 01 00 00 00
 425.329584 1  5F3             Rx   d 8 00 00 9F 01 00 00 00 00
 425.329986 2  7E0             Rx   d 8 00 46 18 46 18 60 18 30
 425.330643    evAnalog_07  := 13.361
