 425.001029 2  527             Rx   d 8 10 01 00 00 72 70 70 08
 425.002210 2  651             Rx   d 8 80 22 50 2F 38 57 C0 00
 425.035005 2  470             Rx   d 8 80 00 00 46 00 00 00 15
 425.035851 2  151             Rx   d 4 00 B0 50 E0
 425.065694 2  2C1             Rx   d 6 00 00 00 00 04 00
 425.085873 2  470             Rx   d 8 80 00 00 46 00 00 00 15
 425.088776 2  5C1             Rx   d 4 00 00 00 00
 425.099700 2  651             Rx   d 8 80 22 50 2F 38 57 C0 00
 425.126924 2  43A             Rx   d 8 00 01 01 01 00 00 00 00
 425.135046 2  470             Rx   d 8 80 00 00 46 00 00 00 15
 425.135877 2  151             Rx   d 4 00 B0 B0 00
 425.165702 2  2C1             Rx   d 6 00 00 00 00 04 00
 425.172909 2  575             Rx   d 4 87 00 00 80
 425.185865 2  470             Rx   d 8 80 00 00 46 00 00 00 15
 425.188816 2  5C1             Rx   d 4 00 00 00 00
 425.201002 2  527             Rx   d 8 10 01 00 00 72 70 70 08
 425.202183 2  651             Rx   d 8 80 22 50 2F 38 57 C0 00
 425.234998 2  470             Rx   d 8 80 00 00 46 00 00 00 15
 425.235840 2  151             Rx   d 4 00 B0 F0 40
 425.265695 2  2C1             Rx   d 6 00 00 00 00 04 00
 425.273071 2  571             Rx   d 6 A8 00 00 00 00 00
 425.287769 2  470             Rx   d 8 80 00 00 46 00 00 00 15
 425.289541 2  5C1             Rx   d 4 00 00 00 00
 425.299694 2  651             Rx   d 8 80 22 50 2F 38 57 C0 00
 425.300456 2  653             Rx   d 3 81 01 84
 425.301636 2  655             Rx   d 8 F5 00 F0 01 18 08 40 C0
 425.334999 2  470             Rx   d 8 80 00 00 46 00 00 00 15
 425.335840 2  151             Rx   d 4 00 B0 50 E0
 425.351830 2  665             Rx   d 7 00 00 00 00 00 00 F0
 425.365691 2  2C1             Rx   d 6 00 00 00 00 04 00
 425.375199 2  575             Rx   d 4 87 00 00 80
 425.377270 2  66F             Rx   d 4 3A D0 00 00
 425.388086 2  470             Rx   d 8 80 00 00 46 00 00 00 15
 425.391028 2  5C1             Rx   d 4 00 00 00 00
 425.400982 2  527             Rx   d 8 10 01 00 00 72 70 70 08
 425.402155 2  651             Rx   d 8 80 22 50 2F 38 57 C0 00
 425.434989 2  470             Rx   d 8 80 00 00 46 00 00 00 15
 425.435825 2  151             Rx   d 4 00 B0 90 20
 425.465682 2  2C1             Rx   d 6 00 00 00 00 04 00
 425.467984 2  43A             Rx   d 8 00 01 01 01 00 00 00 00
 425.488140 2  470             Rx   d 8 80 00 00 46 00 00 00 15
 425.491092 2  5C1             Rx   d 4 00 00 00 00
 425.499656 2  651             Rx   d 8 80 22 50 2F 38 57 C0 00
 425.501609 2  6D2             Rx   d 3 3A 14 00
 425.534981 2  470             Rx   d 8 80 00 00 46 00 00 00 15
 425.535822 2  151             Rx   d 4 00 B0 F0 40
 425.566156 2  2C1             Rx   d 6 00 00 00 00 04 00
 425.574640 2  575             Rx   d 4 87 00 00 80
 425.588125 2  470             Rx   d 8 80 00 00 46 00 00 00 15
 425.591106 2  5C1             Rx   d 4 00 00 00 00
 425.600982 2  527             Rx   d 8 10 01 00 00 72 70 70 08
 425.602154 2  651             Rx   d 8 80 22 50 2F 38 57 C0 00
 425.635023 2  470             Rx   d 8 80 00 00 46 00 00 00 15
 425.635864 2  151             Rx   d 4 00 B0 30 80
 425.665678 2  2C1             Rx   d 6 00 00 00 00 04 00
 425.685846 2  470             Rx   d 8 80 00 00 46 00 00 00 15
 425.689899 2  5C1             Rx   d 4 00 00 00 00
 425.699683 2  651             Rx   d 8 80 22 50 2F 38 57 C0 00
 425.734983 2  470             Rx   d 8 80 00 00 46 00 00 00 15
 425.735809 2  151             Rx   d 4 00 B0 90 20
 425.765672 2  2C1             Rx   d 6 00 00 00 00 04 00
 425.773039 2  571             Rx   d 6 A8 00 00 00 00 00
 425.773890 2  575             Rx   d 4 87 00 00 80
 425.785847 2  470             Rx   d 8 80 00 00 46 00 00 00 15
 425.789911 2  5BF             Rx   d 4 00 00 00 00
 425.790801 2  5C1             Rx   d 4 00 00 00 00
 425.801046 2  43A             Rx   d 8 00 01 01 01 00 00 00 00
 425.802247 2  527             Rx   d 8 10 01 00 00 72 70 70 08
 425.803427 2  651             Rx   d 8 80 22 50 2F 38 57 C0 00
 425.804189 2  653             Rx   d 3 81 01 84
 425.806210 2  655             Rx   d 8 F5 00 F0 01 18 08 40 C0
 425.808642 2  65D             Rx   d 8 00 00 00 20 70 A2 84 17
 425.816573 2  63B             Rx   d 3 3A 4E 02
 425.834977 2  470             Rx   d 8 80 00 00 46 00 00 00 15
 425.835814 2  151             Rx   d 4 00 B0 D0 60
 425.865673 2  2C1             Rx   d 6 00 00 00 00 04 00
 425.888151 2  470             Rx   d 8 80 00 00 46 00 00 00 15
 425.889904 2  5C1             Rx   d 4 00 00 00 00
 425.899977 2  651             Rx   d 8 80 22 50 2F 38 57 C0 00
 425.934977 2  470             Rx   d 8 80 00 00 46 00 00 00 15
 425.935813 2  151             Rx   d 4 00 B0 30 80
 425.965668 2  2C1             Rx   d 6 00 00 00 00 04 00
 425.966908 2  661             Rx   d 8 00 00 00 00 00 00 00 00
 425.974075 2  575             Rx   d 4 87 00 00 80
 425.985839 2  470             Rx   d 8 80 00 00 46 00 00 00 15
 425.991124 2  5C1             Rx   d 4 00 00 00 00
 426.000988 2  527             Rx   d 8 10 01 00 00 72 70 70 08
 426.002169 2  651             Rx   d 8 80 22 50 2F 38 57 C0 00
 426.034964 2  470             Rx   d 8 80 00 00 46 00 00 00 15
 426.035809 2  151             Rx   d 4 00 B0 70 C0
 426.065661 2  2C1             Rx   d 6 00 00 00 00 04 00
 426.085838 2  470             Rx   d 8 80 00 00 46 00 00 00 15
 426.089891 2  5C1             Rx   d 4 00 00 00 00
 426.099696 2  651             Rx   d 8 80 22 50 2F 38 57 C0 00
 426.135011 2  470             Rx   d 8 80 00 00 46 00 00 00 15
 426.135852 2  151             Rx   d 4 00 B0 D0 60
 426.137072 2  43A             Rx   d 8 00 01 01 01 00 00 00 00
 426.165667 2  2C1             Rx   d 6 00 00 00 00 04 00
 426.172803 2  575             Rx   d 4 87 00 00 80
 426.189230 2  470             Rx   d 8 80 00 00 46 00 00 00 15
 426.190982 2  5C1             Rx   d 4 00 00 00 00
 426.201007 2  527             Rx   d 8 10 01 00 00 72 70 70 08
 426.202187 2  651             Rx   d 8 80 22 50 2F 38 57 C0 00
 426.234963 2  470             Rx   d 8 80 00 00 46 00 00 00 15
 426.235810 2  151             Rx   d 4 00 B0 10 A0
 426.265661 2  2C1             Rx   d 6 00 00 00 00 04 00
 426.273028 2  571             Rx   d 6 A8 00 00 00 00 00
 426.289326 2  470             Rx   d 8 80 00 00 46 00 00 00 15
 426.291078 2  5C1             Rx   d 4 00 00 00 00
 426.299682 2  651             Rx   d 8 80 22 50 2F 38 57 C0 00
 426.300443 2  653             Rx   d 3 81 01 84
 426.301624 2  655             Rx   d 8 F5 00 F0 01 18 08 40 C0
 426.334968 2  470             Rx   d 8 80 00 00 46 00 00 00 15
 426.335810 2  151             Rx   d 4 00 B0 70 C0
 426.351839 2  665             Rx   d 7 00 00 00 00 00 00 F0
 426.365661 2  2C1             Rx   d 6 00 00 00 00 04 00
 426.373977 2  575             Rx   d 4 87 00 00 80
 426.376740 2  66F             Rx   d 4 3A D1 00 00
 426.385833 2  470             Rx   d 8 80 00 00 46 00 00 00 15
 426.388756 2  5C1             Rx   d 4 00 00 00 00
 426.401021 2  527             Rx   d 8 10 01 00 00 72 70 70 08
 426.402193 2  651             Rx   d 8 80 22 50 2F 38 57 C0 00
 426.434956 2  470             Rx   d 8 80 00 00 46 00 00 00 15
 426.435792 2  151             Rx   d 4 00 B0 B0 00
 426.465651 2  2C1             Rx   d 6 00 00 00 00 04 00
 426.477217 2  43A             Rx   d 8 00 01 01 01 00 00 00 00
 426.485819 2  470             Rx   d 8 80 00 00 46 00 00 00 15
 426.488752 2  5C1             Rx   d 4 00 00 00 00
 426.499685 2  651             Rx   d 8 80 22 50 2F 38 57 C0 00
 426.501647 2  6D2             Rx   d 3 3A 17 FF
 426.534950 2  470             Rx   d 8 80 00 00 46 00 00 00 15
 426.535790 2  151             Rx   d 4 00 B0 10 A0
 426.565652 2  2C1             Rx   d 6 00 00 00 00 04 00
 426.574068 2  575             Rx   d 4 87 00 00 80
 426.585825 2  470             Rx   d 8 80 00 00 46 00 00 00 15
 426.588777 2  5C1             Rx   d 4 00 00 00 00
 426.600983 2  527             Rx   d 8 10 01 00 00 72 70 70 08
 426.602154 2  651             Rx   d 8 80 22 50 2F 38 57 C0 00
 426.634994 2  470             Rx   d 8 80 00 00 46 00 00 00 15
 426.635835 2  151             Rx   d 4 00 B0 50 E0
 426.664859 2  700             Rx   d 8 02 3E 80 55 55 55 55 55
 426.666742 2  2C1             Rx   d 6 00 00 00 00 04 00
 426.680079 2  76B             Rx   d 8 03 22 F1 99 55 55 55 55
 426.685821 2  470             Rx   d 8 80 00 00 46 00 00 00 15
 426.688982 2  7D5             Rx   d 8 06 62 F1 99 10 02 12 AA
 426.689843 2  5C1             Rx   d 4 00 00 00 00
 426.699667 2  651             Rx   d 8 80 22 50 2F 38 57 C0 00
 426.718709 2  700             Rx   d 8 02 3E 80 55 55 55 55 55
 426.734942 2  470             Rx   d 8 80 00 00 46 00 00 00 15
 426.735772 2  151             Rx   d 4 00 B0 B0 00
 426.737784 2  76B             Rx   d 8 02 10 03 55 55 55 55 55
 426.747706 2  7D5             Rx   d 8 06 50 03 00 32 01 F4 AA
 426.765639 2  2C1             Rx   d 6 00 00 00 00 04 00
 426.774167 2  571             Rx   d 6 A8 00 00 00 00 00
 426.775018 2  575             Rx   d 4 87 00 00 80
 426.785814 2  470             Rx   d 8 80 00 00 46 00 00 00 15
 426.788798 2  5BF             Rx   d 4 00 00 00 00
 426.789688 2  5C1             Rx   d 4 00 00 00 00
 426.801073 2  527             Rx   d 8 10 01 00 00 72 70 70 08
 426.802253 2  651             Rx   d 8 80 22 50 2F 38 57 C0 00
 426.803014 2  653             Rx   d 3 81 01 84
 426.804196 2  655             Rx   d 8 F5 00 F0 01 18 08 40 C0
 426.807458 2  65D             Rx   d 8 00 00 00 20 70 A2 04 18
 426.816959 2  43A             Rx   d 8 00 01 01 01 00 00 00 00
 426.820201 2  63B             Rx   d 3 3A 4F 00
 426.834945 2  470             Rx   d 8 80 00 00 46 00 00 00 15
 426.835785 2  151             Rx   d 4 00 B0 F0 40
 426.837796 2  76B             Rx   d 8 10 09 2E F1 98 03 86 C2
 426.846927 2  7D5             Rx   d 8 30 0F 05 AA AA AA AA AA
 426.848963 2  76B             Rx   d 8 21 EA 91 FE 55 55 55 55
 426.857770 2  7D5             Rx   d 8 03 6E F1 98 AA AA AA AA
 426.866774 2  2C1             Rx   d 6 00 00 00 00 04 00
 426.885813 2  470             Rx   d 8 80 00 00 46 00 00 00 15
 426.888744 2  5C1             Rx   d 4 00 00 00 00
 426.899727 2  651             Rx   d 8 80 22 50 2F 38 57 C0 00
 426.934933 2  470             Rx   d 8 80 00 00 46 00 00 00 15
 426.935775 2  151             Rx   d 4 00 B0 50 E0
 426.966791 2  2C1             Rx   d 6 00 00 00 00 04 00
 426.968030 2  661             Rx   d 8 00 00 00 00 00 00 00 00
 426.975157 2  575             Rx   d 4 87 00 00 80
 426.979600 2  76B             Rx   d 8 06 2E F1 99 10 08 19 55
 426.985802 2  470             Rx   d 8 80 00 00 46 00 00 00 15
 426.988955 2  7D5             Rx   d 8 03 6E F1 99 AA AA AA AA
 426.989815 2  5C1             Rx   d 4 00 00 00 00
 427.000990 2  527             Rx   d 8 10 01 00 00 72 70 70 08
 427.002175 2  651             Rx   d 8 80 22 50 2F 38 57 C0 00
 427.034934 2  470             Rx   d 8 80 00 00 46 00 00 00 15
 427.035765 2  151             Rx   d 4 00 B0 90 20
 427.065623 2  2C1             Rx   d 6 00 00 00 00 04 00
 427.077101 2  76B             Rx   d 8 03 22 F1 9E 55 55 55 55
 427.085802 2  470             Rx   d 8 80 00 00 46 00 00 00 15
 427.088984 2  7D5             Rx   d 8 10 1B 62 F1 9E 55 48 56
 427.089845 2  5C1             Rx   d 4 00 00 00 00
 427.091226 2  76B             Rx   d 8 30 00 00 55 55 55 55 55
 427.099660 2  651             Rx   d 8 80 22 50 2F 38 57 C0 00
 427.102091 2  7D5             Rx   d 8 21 4E 41 00 00 00 00 00
 427.107013 2  7D5             Rx   d 8 22 00 00 00 00 00 00 00
 427.117012 2  7D5             Rx   d 8 23 00 00 00 00 00 00 00
 427.120614 2  76B             Rx   d 8 03 22 F1 A2 55 55 55 55
 427.127018 2  7D5             Rx   d 8 10 09 62 F1 A2 41 30 31
 427.129288 2  76B             Rx   d 8 30 00 00 55 55 55 55 55
 427.134969 2  470             Rx   d 8 80 00 00 46 00 00 00 15
 427.135810 2  151             Rx   d 4 00 B0 F0 40
 427.139013 2  7D5             Rx   d 8 21 30 30 37 AA AA AA AA
 427.157155 2  43A             Rx   d 8 00 01 01 01 00 00 00 00
 427.165626 2  2C1             Rx   d 6 00 00 00 00 04 00
 427.172834 2  575             Rx   d 4 87 00 00 80
 427.185798 2  470             Rx   d 8 80 00 00 46 00 00 00 15
 427.188721 2  5C1             Rx   d 4 00 00 00 00
 427.201035 2  527             Rx   d 8 10 01 00 00 72 70 70 08
 427.202216 2  651             Rx   d 8 80 22 50 2F 38 57 C0 00
 427.234932 2  470             Rx   d 8 80 00 00 46 00 00 00 15
 427.235773 2  151             Rx   d 4 00 B0 30 80
 427.265620 2  2C1             Rx   d 6 00 00 00 00 04 00
 427.272986 2  571             Rx   d 6 A8 00 00 00 00 00
 427.285791 2  470             Rx   d 8 80 00 00 46 00 00 00 15
 427.288723 2  5C1             Rx   d 4 00 00 00 00
 427.299717 2  651             Rx   d 8 80 22 50 2F 38 57 C0 00
 427.300478 2  653             Rx   d 3 81 01 84
 427.301659 2  655             Rx   d 8 F5 00 F0 01 18 08 40 C0
 427.334932 2  470             Rx   d 8 80 00 00 46 00 00 00 15
 427.335764 2  151             Rx   d 4 00 B0 90 20
 427.351855 2  665             Rx   d 7 00 00 00 00 00 00 F0
 427.365617 2  2C1             Rx   d 6 00 00 00 00 04 00
 427.373934 2  575             Rx   d 4 87 00 00 80
 427.377086 2  66F             Rx   d 8 80 08 3A D2 00 00 00 00
 427.385799 2  470             Rx   d 8 80 00 00 46 00 00 00 15
 427.389920 2  5C1             Rx   d 4 00 00 00 00
 427.402194 2  527             Rx   d 8 10 01 00 00 72 70 70 08
 427.403367 2  651             Rx   d 8 80 22 50 2F 38 57 C0 00
 427.406379 2  66F             Rx   d 5 C0 00 00 00 00
 427.434921 2  470             Rx   d 8 80 00 00 46 00 00 00 15
 427.435762 2  151             Rx   d 4 00 B0 D0 60
 427.465613 2  2C1             Rx   d 6 00 00 00 00 04 00
 427.485791 2  470             Rx   d 8 80 00 00 46 00 00 00 15
 427.489893 2  5C1             Rx   d 4 00 00 00 00
 427.499716 2  43A             Rx   d 8 00 01 01 01 00 00 00 00
 427.500887 2  651             Rx   d 8 80 22 50 2F 38 57 C0 00
 427.502827 2  6D2             Rx   d 3 3A 19 00
 427.534914 2  470             Rx   d 8 80 00 00 46 00 00 00 15
 427.535752 2  151             Rx   d 4 00 B0 30 80
 427.565616 2  2C1             Rx   d 6 00 00 00 00 04 00
 427.574023 2  575             Rx   d 4 87 00 00 80
 427.585787 2  470             Rx   d 8 80 00 00 46 00 00 00 15
 427.589959 2  5C1             Rx   d 4 00 00 00 00
 427.602254 2  527             Rx   d 8 10 01 00 00 72 70 70 08
 427.603426 2  651             Rx   d 8 80 22 50 2F 38 57 C0 00
 427.634953 2  470             Rx   d 8 80 00 00 46 00 00 00 15
 427.635790 2  151             Rx   d 4 00 B0 70 C0
 427.665609 2  2C1             Rx   d 6 00 00 00 00 04 00
 427.685777 2  470             Rx   d 8 80 00 00 46 00 00 00 15
 427.689919 2  5C1             Rx   d 4 00 00 00 00
 427.699642 2  76B             Rx   d 8 03 22 F1 87 55 55 55 55
 427.700813 2  651             Rx   d 8 80 22 50 2F 38 57 C0 00
 427.707055 2  7D5             Rx   d 8 10 0E 62 F1 87 37 50 36
 427.709286 2  76B             Rx   d 8 30 00 00 55 55 55 55 55
 427.716947 2  7D5             Rx   d 8 21 30 33 35 37 33 30 43
 427.726920 2  7D5             Rx   d 8 22 20 AA AA AA AA AA AA
 427.734916 2  470             Rx   d 8 80 00 00 46 00 00 00 15
 427.735751 2  151             Rx   d 4 00 B0 D0 60
 427.757086 2  76B             Rx   d 8 03 22 F1 A0 55 55 55 55
 427.765608 2  2C1             Rx   d 6 00 00 00 00 04 00
 427.767849 2  7D5             Rx   d 8 10 0E 62 F1 A0 37 50 36
 427.770250 2  76B             Rx   d 8 30 00 00 55 55 55 55 55
 427.775255 2  571             Rx   d 6 A8 00 00 00 00 00
 427.776106 2  575             Rx   d 4 87 00 00 80
 427.777267 2  7D5             Rx   d 8 21 30 33 35 37 33 30 43
 427.785774 2  470             Rx   d 8 80 00 00 46 00 00 00 15
 427.788926 2  7D5             Rx   d 8 22 20 AA AA AA AA AA AA
 427.789807 2  5BF             Rx   d 4 00 00 00 00
 427.791878 2  5C1             Rx   d 4 00 00 00 00
 427.801062 2  527             Rx   d 8 10 01 00 00 72 70 70 08
 427.802243 2  651             Rx   d 8 80 22 50 2F 38 57 C0 00
 427.803004 2  653             Rx   d 3 81 01 84
 427.804185 2  655             Rx   d 8 F5 00 F0 01 18 08 40 C0
 427.807447 2  65D             Rx   d 8 00 00 00 20 70 A2 84 18
 427.809037 2  76B             Rx   d 8 03 22 F1 A1 55 55 55 55
 427.817029 2  7D5             Rx   d 8 07 62 F1 A1 58 30 30 31
 427.820541 2  63B             Rx   d 6 3A 51 00 00 00 00
 427.834915 2  470             Rx   d 8 80 00 00 46 00 00 00 15
 427.835756 2  151             Rx   d 4 00 B0 10 A0
 427.837828 2  43A             Rx   d 8 00 01 01 01 00 00 00 00
 427.840309 2  76B             Rx   d 8 03 22 F1 A4 55 55 55 55
 427.847058 2  7D5             Rx   d 8 10 0B 62 F1 A4 00 00 00
 427.849290 2  76B             Rx   d 8 30 00 00 55 55 55 55 55
 427.857833 2  7D5             Rx   d 8 21 00 00 00 00 00 AA AA
 427.865605 2  2C1             Rx   d 6 00 00 00 00 04 00
 427.888155 2  470             Rx   d 8 80 00 00 46 00 00 00 15
 427.889908 2  5C1             Rx   d 4 00 00 00 00
 427.899660 2  651             Rx   d 8 80 22 50 2F 38 57 C0 00
 427.935056 2  470             Rx   d 8 80 00 00 46 00 00 00 15
 427.935896 2  151             Rx   d 4 00 B0 70 C0
 427.965601 2  2C1             Rx   d 6 00 00 00 00 04 00
 427.966842 2  661             Rx   d 8 00 00 00 00 00 00 00 00
 427.974008 2  575             Rx   d 4 87 00 00 80
 427.985772 2  470             Rx   d 8 80 00 00 46 00 00 00 15
 427.988695 2  5C1             Rx   d 4 00 00 00 00
 427.992206 2  76B             Rx   d 8 03 22 F1 89 55 55 55 55
 428.000982 2  527             Rx   d 8 10 01 00 00 72 70 70 08
 428.002153 2  651             Rx   d 8 80 22 50 2F 38 57 C0 00
 428.004516 2  7D5             Rx   d 8 07 62 F1 89 30 34 34 30
 428.034891 2  470             Rx   d 8 80 00 00 46 00 00 00 15
 428.035726 2  151             Rx   d 4 00 B0 B0 00
 428.037704 2  76B             Rx   d 8 03 22 F1 97 55 55 55 55
 428.047050 2  7D5             Rx   d 8 10 10 62 F1 97 54 45 4C
 428.049286 2  76B             Rx   d 8 30 00 00 55 55 55 55 55
 428.057769 2  7D5             Rx   d 8 21 45 46 4F 4E 20 20 20
 428.065601 2  2C1             Rx   d 6 00 00 00 00 04 00
 428.067853 2  7D5             Rx   d 8 22 20 20 20 AA AA AA AA
 428.085770 2  470             Rx   d 8 80 00 00 46 00 00 00 15
 428.088702 2  5C1             Rx   d 4 00 00 00 00
 428.093093 2  76B             Rx   d 8 03 22 F1 8C 55 55 55 55
 428.099657 2  651             Rx   d 8 80 22 50 2F 38 57 C0 00
 428.102069 2  7D5             Rx   d 8 10 11 62 F1 8C 30 30 30
 428.104310 2  76B             Rx   d 8 30 00 00 55 55 55 55 55
 428.106931 2  7D5             Rx   d 8 21 30 37 36 36 37 36 34
 428.116922 2  7D5             Rx   d 8 22 31 31 34 39 AA AA AA
 428.134937 2  470             Rx   d 8 80 00 00 46 00 00 00 15
 428.135778 2  151             Rx   d 4 00 B0 10 A0
 428.148392 2  76B             Rx   d 8 03 22 F1 91 55 55 55 55
 428.157074 2  7D5             Rx   d 8 10 0E 62 F1 91 37 50 36
 428.159304 2  76B             Rx   d 8 30 00 00 55 55 55 55 55
 428.165596 2  2C1             Rx   d 6 00 00 00 00 04 00
 428.167897 2  43A             Rx   d 8 00 01 01 01 00 00 00 00
 428.170300 2  7D5             Rx   d 8 21 30 33 35 37 33 30 43
 428.175074 2  575             Rx   d 4 87 00 00 80
 428.177455 2  7D5             Rx   d 8 22 20 AA AA AA AA AA AA
 428.185771 2  470             Rx   d 8 80 00 00 46 00 00 00 15
 428.188701 2  5C1             Rx   d 4 00 00 00 00
 428.200985 2  527             Rx   d 8 10 01 00 00 72 70 70 08
 428.202165 2  651             Rx   d 8 80 22 50 2F 38 57 C0 00
 428.205658 2  76B             Rx   d 8 03 22 F1 A3 55 55 55 55
 428.207019 2  7D5             Rx   d 8 06 62 F1 A3 48 30 35 AA
 428.232164 2  76B             Rx   d 8 03 22 06 00 55 55 55 55
 428.234895 2  470             Rx   d 8 80 00 00 46 00 00 00 15
 428.235739 2  151             Rx   d 4 00 B0 50 E0
 428.238977 2  7D5             Rx   d 8 10 0B 62 06 00 05 00 00
 428.241228 2  76B             Rx   d 8 30 00 00 55 55 55 55 55
 428.246979 2  7D5             Rx   d 8 21 00 01 01 01 10 AA AA
 428.266603 2  2C1             Rx   d 6 00 00 00 00 04 00
 428.274005 2  571             Rx   d 6 A8 00 00 00 00 00
 428.285765 2  470             Rx   d 8 80 00 00 46 00 00 00 15
 428.288668 2  5C1             Rx   d 4 00 00 00 00
 428.299672 2  651             Rx   d 8 80 22 50 2F 38 57 C0 00
 428.300434 2  653             Rx   d 3 81 01 84
 428.301614 2  655             Rx   d 8 F5 00 F0 01 18 08 40 C0
 428.334898 2  470             Rx   d 8 80 00 00 46 00 00 00 15
 428.335730 2  151             Rx   d 4 00 B0 B0 00
 428.347311 2  76B             Rx   d 8 03 22 F1 A5 55 55 55 55
 428.351873 2  665             Rx   d 7 00 00 00 00 00 00 F0
 428.357084 2  7D5             Rx   d 8 10 09 62 F1 A5 03 86 C2
 428.359486 2  76B             Rx   d 8 30 00 00 55 55 55 55 55
 428.365588 2  2C1             Rx   d 6 00 00 00 00 04 00
 428.367819 2  7D5             Rx   d 8 21 EA 00 4A AA AA AA AA
 428.375055 2  575             Rx   d 4 87 00 00 80
 428.377496 2  66F             Rx   d 8 3A D3 00 00 00 00 FF 00
 428.385773 2  470             Rx   d 8 80 00 00 46 00 00 00 15
 428.389912 2  5C1             Rx   d 4 00 00 00 00
 428.402187 2  527             Rx   d 8 10 01 00 00 72 70 70 08
 428.403360 2  651             Rx   d 8 80 22 50 2F 38 57 C0 00
 428.434885 2  470             Rx   d 8 80 00 00 46 00 00 00 15
 428.435731 2  151             Rx   d 4 00 B0 F0 40
 428.465580 2  2C1             Rx   d 6 00 00 00 00 04 00
 428.485758 2  470             Rx   d 8 80 00 00 46 00 00 00 15
 428.489891 2  5C1             Rx   d 4 00 00 00 00
 428.493922 2  76B             Rx   d 8 03 22 F1 9A 55 55 55 55
 428.499705 2  43A             Rx   d 8 00 01 01 01 00 00 00 00
 428.500875 2  651             Rx   d 8 80 22 50 2F 38 57 C0 00
 428.503257 2  7D5             Rx   d 8 10 09 62 F1 9A 03 86 C2
 428.504468 2  6D2             Rx   d 8 80 08 3A 1A 00 00 00 00
 428.506449 2  76B             Rx   d 8 30 00 00 55 55 55 55 55
 428.516951 2  7D5             Rx   d 8 21 EA 00 4A AA AA AA AA
 428.526934 2  6D2             Rx   d 5 C0 00 00 00 00
 428.534875 2  470             Rx   d 8 80 00 00 46 00 00 00 15
 428.535717 2  151             Rx   d 4 00 B0 50 E0
 428.565572 2  2C1             Rx   d 6 00 00 00 00 04 00
 428.573920 2  575             Rx   d 4 87 00 00 80
 428.580333 2  76B             Rx   d 8 03 22 F1 7C 55 55 55 55
 428.585755 2  470             Rx   d 8 80 00 00 46 00 00 00 15
 428.588938 2  7D5             Rx   d 8 10 1A 62 F1 7C 53 4A 41
 428.589798 2  5C1             Rx   d 4 00 00 00 00
 428.592209 2  76B             Rx   d 8 30 00 00 55 55 55 55 55
 428.602205 2  527             Rx   d 8 10 01 00 00 72 70 70 08
 428.603376 2  651             Rx   d 8 80 22 50 2F 38 57 C0 00
 428.606609 2  7D5             Rx   d 8 21 2D 30 30 31 30 35 2E
 428.616980 2  7D5             Rx   d 8 22 31 31 2E 30 39 30 30
 428.626953 2  7D5             Rx   d 8 23 30 31 30 39 37 34 AA
 428.634924 2  470             Rx   d 8 80 00 00 46 00 00 00 15
 428.635760 2  151             Rx   d 4 00 B0 90 20
 428.656540 2  76B             Rx   d 8 03 22 F1 7E 55 55 55 55
 428.665572 2  2C1             Rx   d 6 00 00 00 00 04 00
 428.667804 2  7D5             Rx   d 8 10 0B 62 F1 7E 31 42 30
 428.670206 2  76B             Rx   d 8 30 00 00 55 55 55 55 55
 428.677171 2  7D5             Rx   d 8 21 30 31 30 30 31 AA AA
 428.685752 2  470             Rx   d 8 80 00 00 46 00 00 00 15
 428.689914 2  5C1             Rx   d 4 00 00 00 00
 428.699678 2  651             Rx   d 8 80 22 50 2F 38 57 C0 00
 428.707591 2  76B             Rx   d 8 03 22 F1 DF 55 55 55 55
 428.717021 2  7D5             Rx   d 8 04 62 F1 DF 40 AA AA AA
 428.721924 2  700             Rx   d 8 02 3E 80 55 55 55 55 55
 428.734882 2  470             Rx   d 8 80 00 00 46 00 00 00 15
 428.735717 2  151             Rx   d 4 00 B0 F0 40
 428.746139 2  76B             Rx   d 8 03 22 F1 9E 55 55 55 55
 428.757121 2  7D5             Rx   d 8 10 1B 62 F1 9E 55 48 56
 428.759362 2  76B             Rx   d 8 30 00 00 55 55 55 55 55
 428.765574 2  2C1             Rx   d 6 00 00 00 00 04 00
 428.767876 2  7D5             Rx   d 8 21 4E 41 00 00 00 00 00
 428.774181 2  571             Rx   d 6 A8 00 00 00 00 00
 428.775032 2  575             Rx   d 4 87 00 00 80
 428.777513 2  7D5             Rx   d 8 22 00 00 00 00 00 00 00
 428.785740 2  470             Rx   d 8 80 00 00 46 00 00 00 15
 428.789013 2  7D5             Rx   d 8 23 00 00 00 00 00 00 00
 428.789893 2  5BF             Rx   d 4 00 00 00 00
 428.790784 2  5C1             Rx   d 4 00 00 00 00
 428.801088 2  527             Rx   d 8 10 01 00 00 72 70 70 08
 428.802269 2  651             Rx   d 8 80 22 50 2F 38 57 C0 00
 428.803030 2  653             Rx   d 3 81 01 84
 428.804211 2  655             Rx   d 8 F5 00 F0 01 18 08 40 C0
 428.807484 2  65D             Rx   d 8 00 00 00 20 70 A2 04 19
 428.816825 2  63B             Rx   d 5 3A 56 00 00 00
 428.820436 2  76B             Rx   d 8 03 22 F1 A2 55 55 55 55
 428.826988 2  43A             Rx   d 8 00 01 01 01 00 00 00 00
 428.828158 2  7D5             Rx   d 8 10 09 62 F1 A2 41 30 31
 428.831520 2  76B             Rx   d 8 30 00 00 55 55 55 55 55
 428.834923 2  470             Rx   d 8 80 00 00 46 00 00 00 15
 428.835763 2  151             Rx   d 4 00 B0 30 80
 428.838965 2  7D5             Rx   d 8 21 30 30 37 AA AA AA AA
 428.865570 2  2C1             Rx   d 6 00 00 00 00 04 00
 428.885739 2  470             Rx   d 8 80 00 00 46 00 00 00 15
 428.888673 2  5C1             Rx   d 4 00 00 00 00
 428.899676 2  651             Rx   d 8 80 22 50 2F 38 57 C0 00
 428.934867 2  470             Rx   d 8 80 00 00 46 00 00 00 15
 428.935694 2  151             Rx   d 4 00 B0 90 20
 428.966718 2  2C1             Rx   d 6 00 00 00 00 04 00
 428.967959 2  661             Rx   d 8 00 00 00 00 00 00 00 00
 428.975085 2  575             Rx   d 4 87 00 00 80
 428.983979 2  76B             Rx   d 8 03 22 F1 F4 55 55 55 55
 428.986030 2  470             Rx   d 8 80 00 00 46 00 00 00 15
 428.989213 2  7D5             Rx   d 8 03 7F 22 31 AA AA AA AA
 428.990074 2  5C1             Rx   d 4 00 00 00 00
 429.001008 2  527             Rx   d 8 10 01 00 00 72 70 70 08
 429.002189 2  651             Rx   d 8 80 22 50 2F 38 57 C0 00
 429.005940 2  76B             Rx   d 8 03 22 F1 AD 55 55 55 55
 429.016970 2  7D5             Rx   d 8 03 7F 22 31 AA AA AA AA
 429.034864 2  470             Rx   d 8 80 00 00 46 00 00 00 15
 429.035710 2  151             Rx   d 4 00 B0 D0 60
 429.065552 2  2C1             Rx   d 6 00 00 00 00 04 00
 429.085730 2  470             Rx   d 8 80 00 00 46 00 00 00 15
 429.088633 2  5C1             Rx   d 4 00 00 00 00
 429.099676 2  651             Rx   d 8 80 22 50 2F 38 57 C0 00
 429.134900 2  470             Rx   d 8 80 00 00 46 00 00 00 15
 429.135741 2  151             Rx   d 4 00 B0 30 80
 429.146994 2  43A             Rx   d 8 00 01 01 01 00 00 00 00
 429.165555 2  2C1             Rx   d 6 00 00 00 00 04 00
 429.172692 2  575             Rx   d 4 87 00 00 80
 429.185727 2  470             Rx   d 8 80 00 00 46 00 00 00 15
 429.188680 2  5C1             Rx   d 4 00 00 00 00
 429.201087 2  527             Rx   d 8 10 01 00 00 72 70 70 08
 429.202266 2  651             Rx   d 8 80 22 50 2F 38 57 C0 00
 429.234864 2  470             Rx   d 8 80 00 00 46 00 00 00 15
 429.235701 2  151             Rx   d 4 00 B0 70 C0
 429.265552 2  2C1             Rx   d 6 00 00 00 00 04 00
 429.272908 2  571             Rx   d 6 A8 00 00 00 00 00
 429.285723 2  470             Rx   d 8 80 00 00 46 00 00 00 15
 429.288657 2  5C1             Rx   d 4 00 00 00 00
 429.300141 2  651             Rx   d 8 80 22 50 2F 38 57 C0 00

 
 429.340132 2  76B             Rx   d 8 03 19 02 0C 55 55 55 55
 429.347164 2  7D5             Rx   d 8 07 59 02 19 D0 14 00 09
 429.351894 2  665             Rx   d 7 00 00 00 00 00 00 F0
 429.753856 2  76B             Rx   d 8 06 19 06 D0 14 00 FF 55
 429.757108 2  7D5             Rx   d 8 10 14 59 06 D0 14 00 2F
 429.759349 2  76B             Rx   d 8 30 00 00 55 55 55 55 55
 429.767846 2  7D5             Rx   d 8 21 01 04 01 02 00 00 00
 429.777440 2  7D5             Rx   d 8 22 00 00 00 0B 88 A0 B2
 430.351909 2  665             Rx   d 7 80 00 00 00 00 00 F0
 431.351921 2  665             Rx   d 7 80 00 00 00 00 00 F0
 432.351939 2  665             Rx   d 7 00 00 00 00 00 00 F0
 433.351961 2  665             Rx   d 7 00 00 00 00 00 00 F0
 434.351981 2  665             Rx   d 7 00 00 00 00 00 00 F0
