   0.085370 1  6D2             Rx   d 6 3A 0E 04 00 04 02
   0.142790 1  575             Rx   d 4 01 00 00 00
   0.185170 1  66F             Rx   d 4 3A D0 01 03
   0.325560 1  63B             Rx   d 8 3A 42 03 00 29 00 03 00
   0.342770 1  575             Rx   d 4 01 00 00 00
   0.542770 1  575             Rx   d 4 01 00 00 00
   0.597040 1  63C             Rx   d 3 3B E5 01
   0.686980 1  55B             Rx   d 1 01
   0.742780 1  575             Rx   d 4 01 00 00 00
   0.942780 1  575             Rx   d 4 01 00 00 00
   1.085140 1  6D2             Rx   d 3 3A 0F 0C
   1.142810 1  575             Rx   d 4 01 00 00 00
   1.185230 1  66F             Rx   d 4 3A D1 01 01
   1.205040 1  66F             Rx   d 3 4A D7 01
   1.227920 1  67C             Rx   d 3 0A D7 01
   1.325590 1  63B             Rx   d 8 3A 43 38 03 FB D4 80 00
   1.343760 1  575             Rx   d 4 01 00 00 00
   1.542800 1  575             Rx   d 4 01 00 00 00
   1.597020 1  63C             Rx   d 3 3B E6 00
   1.686920 1  55B             Rx   d 1 01
   1.744000 1  575             Rx   d 4 01 00 00 00
   1.903440 1  575             Rx   d 4 03 00 00 00
   1.925120 1  66F             Rx   d 3 4A CF 00
   1.942810 1  575             Rx   d 4 03 00 00 00
   1.945510 1  66F             Rx   d 8 80 45 4A D4 04 00 00 47
   1.958690 1  67C             Rx   d 7 80 03 1C 62 00 00 06
   1.965360 1  66F             Rx   d 6 4A D6 04 00 00 00
   1.985660 1  66F             Rx   d 8 4A D3 04 00 00 00 FF 01
   2.005530 1  66F             Rx   d 8 C0 00 04 00 00 80 1B 41
   2.008300 1  67C             Rx   d 8 2A D3 04 00 00 00 02 FF
   2.025680 1  66F             Rx   d 8 4A D3 04 00 00 00 02 01
   2.045480 1  66F             Rx   d 8 C1 70 70 6C 65 E2 80 99
   2.065620 1  66F             Rx   d 8 C2 73 20 69 50 68 6F 6E
   2.085600 1  6D2             Rx   d 8 80 08 3A 10 00 00 00 00
   2.087960 1  66F             Rx   d 8 C3 65 20 33 47 20 69 4F
   2.105560 1  66F             Rx   d 8 C4 53 20 34 2E 31 01 00
   2.115350 1  6D2             Rx   d 5 C0 00 00 00 00
   2.125560 1  66F             Rx   d 8 C5 80 0A 43 6F 6E 6E 65
   2.142840 1  575             Rx   d 4 03 00 00 00
   2.145890 1  66F             Rx   d 8 C6 63 74 69 6E 67 02 00
   2.165610 1  66F             Rx   d 8 C7 80 04 75 73 65 72 03
   2.185610 1  66F             Rx   d 8 C8 04 83 06 43 61 6E 63
   2.205200 1  66F             Rx   d 3 C9 65 6C
   2.228180 1  67C             Rx   d 3 0A D5 04
   2.245660 1  66F             Rx   d 8 4A D3 04 00 00 00 FF 01
   2.278940 1  67C             Rx   d 8 2A D3 04 00 00 00 02 FF
   2.295700 1  66F             Rx   d 8 4A D3 04 00 00 00 02 01
   2.325180 1  63B             Rx   d 3 3A 44 0A
   2.328540 1  67C             Rx   d 8 80 05 1C 62 90 03 06 06
   2.342810 1  575             Rx   d 4 03 00 00 00
   2.379120 1  67C             Rx   d 2 C0 00
   2.542840 1  575             Rx   d 4 03 00 00 00
   2.597290 1  63C             Rx   d 6 3B E7 FF FF FF FF
   2.688590 1  55B             Rx   d 1 01
   2.742840 1  575             Rx   d 4 03 00 00 00
   2.942850 1  575             Rx   d 4 03 00 00 00
   3.085590 1  6D2             Rx   d 7 80 03 3A 12 00 00 00
   3.144470 1  575             Rx   d 4 03 00 00 00
   3.285650 1  66F             Rx   d 8 80 08 3A D2 02 07 08 00
   3.305460 1  66F             Rx   d 5 C0 00 00 00 00
   3.325200 1  63B             Rx   d 3 3A 4E 02
   3.342860 1  575             Rx   d 4 03 00 00 00
   3.544080 1  575             Rx   d 4 03 00 00 00
   3.597440 1  63C             Rx   d 8 3B C2 03 00 2F 00 03 04
   3.687510 1  55B             Rx   d 1 01
   3.742860 1  575             Rx   d 4 03 00 00 00
   3.942870 1  575             Rx   d 4 03 00 00 00
   4.085220 1  6D2             Rx   d 3 3A 13 01
   4.142900 1  575             Rx   d 4 03 00 00 00
   4.285700 1  66F             Rx   d 8 3A D3 04 00 00 00 02 01
   4.325260 1  63B             Rx   d 3 3A 4F 00
   4.342880 1  575             Rx   d 4 03 00 00 00
   4.542880 1  575             Rx   d 4 03 00 00 00
   4.597420 1  63C             Rx   d 8 80 08 3B C3 38 03 CF FF
   4.617170 1  63C             Rx   d 5 C0 77 00 80 00
   4.687230 1  55B             Rx   d 1 01
   4.742880 1  575             Rx   d 4 03 00 00 00
   4.943840 1  575             Rx   d 4 03 00 00 00
   5.085270 1  6D2             Rx   d 3 3A 14 00
   5.142920 1  575             Rx   d 4 03 00 00 00
   5.285250 1  66F             Rx   d 3 3A D5 00
   5.325570 1  63B             Rx   d 6 3A 51 00 00 00 00
   5.342900 1  575             Rx   d 4 03 00 00 00
   5.542900 1  575             Rx   d 4 03 00 00 00
   5.596990 1  63C             Rx   d 3 3B C4 0A
   5.687570 1  55B             Rx   d 1 01
   5.742910 1  575             Rx   d 4 03 00 00 00
   5.942910 1  575             Rx   d 4 03 00 00 00
   6.085310 1  6D2             Rx   d 3 3A 17 FF
   6.142940 1  575             Rx   d 4 03 00 00 00
   6.195290 1  66F             Rx   d 3 4A D7 01
   6.207840 1  67C             Rx   d 3 0A D7 01
   6.325500 1  63B             Rx   d 5 3A 56 00 00 00
   6.342920 1  575             Rx   d 4 03 00 00 00
   6.346360 1  6D2             Rx   d 3 4A 0F 0C
   6.405760 1  66F             Rx   d 8 4A D3 04 00 00 00 FF 01
   6.429190 1  67C             Rx   d 8 2A D3 04 00 00 00 02 FF
   6.445840 1  66F             Rx   d 8 4A D3 04 00 00 00 02 01
   6.542920 1  575             Rx   d 4 03 00 00 00
   6.596990 1  63C             Rx   d 3 3B CE 01
   6.687280 1  55B             Rx   d 1 01
   6.742920 1  575             Rx   d 4 03 00 00 00
   6.942930 1  575             Rx   d 4 03 00 00 00
   7.142960 1  575             Rx   d 4 03 00 00 00
   7.325560 1  63B             Rx   d 5 80 01 3A 59 00
   7.335340 1  6D2             Rx   d 3 3A 19 00
   7.342940 1  575             Rx   d 4 03 00 00 00
   7.435620 1  66F             Rx   d 6 3A D6 04 00 00 00
   7.542950 1  575             Rx   d 4 03 00 00 00
   7.596970 1  63C             Rx   d 3 3B CF 05
   7.687020 1  55B             Rx   d 1 01
   7.742960 1  575             Rx   d 4 03 00 00 00
   7.942960 1  575             Rx   d 4 03 00 00 00
   8.142980 1  575             Rx   d 4 03 00 00 00
   8.327150 1  63B             Rx   d 6 3A 5B 00 00 00 00
   8.335880 1  6D2             Rx   d 8 80 08 3A 1A 00 00 00 00
   8.342960 1  575             Rx   d 4 03 00 00 00
   8.365660 1  6D2             Rx   d 5 C0 00 00 00 00
   8.435360 1  66F             Rx   d 3 3A D7 01
   8.542970 1  575             Rx   d 4 03 00 00 00
   8.597440 1  63C             Rx   d 8 80 08 3B D0 1E C0 23 00
   8.617180 1  63C             Rx   d 5 C0 60 00 00 00
   8.635360 1  6D2             Rx   d 3 4A 0F 0C
   8.636530 1  66F             Rx   d 8 80 3F 4A D4 04 00 00 47
   8.655900 1  66F             Rx   d 8 C0 00 04 00 00 80 1B 41
   8.665730 1  6D2             Rx   d 7 80 03 3A 11 00 00 02
   8.675830 1  66F             Rx   d 8 C1 70 70 6C 65 E2 80 99
   8.686800 1  6C7             Rx   d 7 80 03 1A 11 00 00 05
   8.687370 1  55B             Rx   d 1 01
   8.695710 1  66F             Rx   d 6 4A D6 04 00 00 00
   8.705840 1  6D2             Rx   d 8 80 4A 4A 11 00 00 02 02
   8.715820 1  66F             Rx   d 8 C2 73 20 69 50 68 6F 6E
   8.735760 1  6D2             Rx   d 8 C0 6E 61 0C 30 30 32 33
   8.736910 1  66F             Rx   d 8 C3 65 20 33 47 20 69 4F
   8.742990 1  575             Rx   d 4 03 00 00 00
   8.755820 1  66F             Rx   d 8 C4 53 20 34 2E 31 01 00
   8.765750 1  6D2             Rx   d 8 C1 36 43 45 37 33 32 30
   8.775800 1  66F             Rx   d 8 C5 80 0A 43 6F 6E 6E 65
   8.795760 1  6D2             Rx   d 8 C2 31 1B 41 70 70 6C 65
   8.796910 1  66F             Rx   d 8 C6 63 74 69 6E 67 02 00
   8.815800 1  66F             Rx   d 8 C7 80 04 75 73 65 72 03
   8.825760 1  6D2             Rx   d 8 C3 E2 80 99 73 20 69 50
   8.835500 1  66F             Rx   d 4 C8 00 00 00
   8.848370 1  67C             Rx   d 3 0A D5 04
   8.855800 1  6D2             Rx   d 8 C4 68 6F 6E 65 20 33 47
   8.866900 1  66F             Rx   d 8 4A D3 04 00 00 00 FF 01
   8.885740 1  6D2             Rx   d 8 C5 20 69 4F 53 20 34 2E
   8.899120 1  67C             Rx   d 8 2A D3 04 00 00 00 02 FF
   8.915880 1  66F             Rx   d 8 4A D3 04 00 00 00 02 01
   8.917010 1  6D2             Rx   d 8 C6 31 02 6E 61 0C 30 30
   8.942980 1  575             Rx   d 4 03 00 00 00
   8.945750 1  6D2             Rx   d 8 C7 32 33 46 31 31 38 38
   8.975850 1  6D2             Rx   d 8 C8 46 33 32 0A 43 39 30
   9.005830 1  6D2             Rx   d 8 C9 35 20 6D 73 3B 2D 29
   9.143000 1  575             Rx   d 4 03 00 00 00
   9.326610 1  63B             Rx   d 8 3A 42 03 00 29 00 03 00
   9.342980 1  575             Rx   d 4 03 00 00 00
   9.542990 1  575             Rx   d 4 03 00 00 00
   9.597420 1  63C             Rx   d 8 90 07 3B D1 05 41 75 78
   9.617910 1  63C             Rx   d 4 D0 49 6E 20
   9.687090 1  55B             Rx   d 1 01
   9.695460 1  6D2             Rx   d 3 3A 21 01
   9.743000 1  575             Rx   d 4 03 00 00 00
   9.905820 1  66F             Rx   d 8 3A C2 03 00 2B 00 03 01
   9.943000 1  575             Rx   d 4 03 00 00 00
  10.143020 1  575             Rx   d 4 03 00 00 00
  10.325900 1  63B             Rx   d 8 3A 43 38 03 FB D4 80 00
  10.343000 1  575             Rx   d 4 03 00 00 00
  10.543000 1  575             Rx   d 4 03 00 00 00
  10.596990 1  63C             Rx   d 3 3B D4 FF
  10.687120 1  55B             Rx   d 1 01
  10.695510 1  6D2             Rx   d 3 3A 22 00
  10.743010 1  575             Rx   d 4 03 00 00 00
  10.905890 1  66F             Rx   d 8 80 08 3A C3 38 01 FF 00
  10.925740 1  66F             Rx   d 5 C0 00 00 00 00
  10.943020 1  575             Rx   d 4 03 00 00 00
  11.143040 1  575             Rx   d 4 03 00 00 00
  11.195400 1  66F             Rx   d 3 4A D7 01
  11.208550 1  67C             Rx   d 3 0A D7 01
  11.325470 1  63B             Rx   d 3 3A 44 0A
  11.343020 1  575             Rx   d 4 03 00 00 00
  11.543030 1  575             Rx   d 4 03 00 00 00
  11.596970 1  63C             Rx   d 3 3B D5 01
  11.687190 1  55B             Rx   d 1 01
  11.695950 1  6D2             Rx   d 8 3A 02 03 00 28 00 03 00
  11.743040 1  575             Rx   d 4 03 00 00 00
  11.943040 1  575             Rx   d 4 03 00 00 00
  12.143070 1  575             Rx   d 4 03 00 00 00
  12.185490 1  66F             Rx   d 3 3A C4 0A
  12.325520 1  63B             Rx   d 3 3A 4E 02
  12.343040 1  575             Rx   d 4 03 00 00 00
  12.543040 1  575             Rx   d 4 03 00 00 00
  12.597640 1  63C             Rx   d 3 3B D6 FF
  12.687200 1  55B             Rx   d 1 01
  12.696000 1  6D2             Rx   d 8 80 08 3A 03 38 03 FB 7F
  12.725770 1  6D2             Rx   d 5 C0 EB 90 80 00
  12.743060 1  575             Rx   d 4 03 00 00 00
  12.943060 1  575             Rx   d 4 03 00 00 00
  13.143080 1  575             Rx   d 4 03 00 00 00
  13.187800 1  66F             Rx   d 3 3A CF 00
  13.325570 1  63B             Rx   d 3 3A 4F 00
  13.343060 1  575             Rx   d 4 03 00 00 00
  13.543070 1  575             Rx   d 4 03 00 00 00
  13.597280 1  63C             Rx   d 6 3B D7 FF FF FF FF
  13.687170 1  55B             Rx   d 1 01
  13.695560 1  6D2             Rx   d 3 3A 04 0A
  13.743080 1  575             Rx   d 4 03 00 00 00
  13.943080 1  575             Rx   d 4 03 00 00 00
  14.143100 1  575             Rx   d 4 03 00 00 00
  14.185650 1  66F             Rx   d 4 3A D0 01 03
  14.325880 1  63B             Rx   d 6 3A 51 00 00 00 00
  14.343080 1  575             Rx   d 4 03 00 00 00
  14.345690 1  63B             Rx   d 5 80 01 4A 59 00
  14.346850 1  66F             Rx   d 8 80 34 4A D4 07 00 00 47
  14.347870 1  6D2             Rx   d 6 4A 0E 04 03 04 02
  14.365980 1  66F             Rx   d 8 C0 00 04 00 00 80 1B 41
  14.367150 1  63B             Rx   d 8 80 08 4A 50 1E C0 DF 03
  14.375580 1  6D2             Rx   d 3 4A 0F 09
  14.385760 1  63B             Rx   d 5 C0 00 00 00 00
  14.388130 1  66F             Rx   d 8 C1 70 70 6C 65 E2 80 99
  14.405950 1  66F             Rx   d 8 C2 73 20 69 50 68 6F 6E
  14.407120 1  6D2             Rx   d 8 80 08 4A 10 1E C0 DF 7E
  14.426060 1  66F             Rx   d 8 C3 65 20 33 47 20 69 4F
  14.435840 1  6D2             Rx   d 5 C0 D5 01 01 00
  14.447040 1  66F             Rx   d 8 C4 53 20 34 2E 31 01 00
  14.465950 1  6D2             Rx   d 8 80 2C 4A 12 02 6E 61 0C
  14.467160 1  66F             Rx   d 8 C5 80 00 02 00 80 03 EF
  14.485970 1  66F             Rx   d 7 C6 9F BF 03 00 80 00
  14.495970 1  6D2             Rx   d 8 C0 30 30 32 33 36 43 45
  14.508410 1  67C             Rx   d 3 0A D5 07
  14.525480 1  6D2             Rx   d 3 4A 13 01
  14.526670 1  66F             Rx   d 8 4A D3 04 00 00 00 FF 00
  14.543090 1  575             Rx   d 4 03 00 00 00
  14.555710 1  6D2             Rx   d 5 90 01 4A 16 00
  14.559100 1  67C             Rx   d 8 2A D3 04 00 00 00 00 FF
  14.576070 1  66F             Rx   d 8 4A D3 04 00 00 00 00 00
  14.585980 1  6D2             Rx   d 8 90 08 4A 10 1E C0 DF FE
  14.596060 1  66F             Rx   d 8 4A D3 07 00 00 00 FF 01
  14.597320 1  63C             Rx   d 6 3B D8 FF FF FF FF
  14.609090 1  67C             Rx   d 8 2A D3 07 00 00 00 02 FF
  14.615780 1  6D2             Rx   d 5 D0 D5 09 01 00
  14.627090 1  66F             Rx   d 8 4A D3 07 00 00 00 02 01
  14.645940 1  66F             Rx   d 8 80 43 4A D4 07 00 00 47
  14.647080 1  6D2             Rx   d 8 C1 37 33 32 30 31 1B 41
  14.666120 1  66F             Rx   d 8 C0 00 04 00 00 80 1B 41
  14.675960 1  6D2             Rx   d 8 C2 70 70 6C 65 E2 80 99
  14.686010 1  66F             Rx   d 8 C1 70 70 6C 65 E2 80 99
  14.686600 1  55B             Rx   d 1 01
  14.705950 1  6D2             Rx   d 8 C3 73 20 69 50 68 6F 6E
  14.707100 1  66F             Rx   d 8 C2 73 20 69 50 68 6F 6E
  14.726000 1  66F             Rx   d 8 C3 65 20 33 47 20 69 4F
  14.735960 1  6D2             Rx   d 8 C4 65 20 33 47 20 69 4F
  14.743100 1  575             Rx   d 4 03 00 00 00
  14.746010 1  66F             Rx   d 8 C4 53 20 34 2E 31 01 00
  14.749690 1  67C             Rx   d 7 80 03 1C 56 00 2F 06
  14.765780 1  6D2             Rx   d 6 C5 53 20 34 2E 31
  14.767000 1  66F             Rx   d 8 C5 80 00 02 00 80 03 EF
  14.786040 1  66F             Rx   d 8 C6 9F BE 03 00 80 0F EF
  14.795550 1  6D2             Rx   d 3 4A 17 63
  14.807090 1  66F             Rx   d 8 C7 A0 83 EF A0 84 EF A0
  14.826050 1  66F             Rx   d 8 C8 85 EF A0 86 EF A0 87
  14.848680 1  67C             Rx   d 3 0A D5 07
  14.866090 1  66F             Rx   d 8 4A D3 07 00 00 00 FF 01
  14.885990 1  6D2             Rx   d 8 80 0B 4A 16 0A 54 2D 4D
  14.899520 1  67C             Rx   d 8 2A D3 07 00 00 00 02 FF
  14.916070 1  66F             Rx   d 8 4A D3 07 00 00 00 02 01
  14.917200 1  6D2             Rx   d 8 C0 6F 62 69 6C 65 20 44
  14.935950 1  66F             Rx   d 8 80 46 4A D4 07 00 00 47
  14.943100 1  575             Rx   d 4 03 00 00 00
  14.956130 1  66F             Rx   d 8 C0 00 04 00 00 80 1B 41
  14.976080 1  66F             Rx   d 8 C1 70 70 6C 65 E2 80 99
  14.996070 1  66F             Rx   d 8 C2 73 20 69 50 68 6F 6E
  15.016060 1  66F             Rx   d 8 C3 65 20 33 47 20 69 4F
  15.036050 1  66F             Rx   d 8 C4 53 20 34 2E 31 01 00
  15.056100 1  66F             Rx   d 8 C5 80 00 02 00 80 06 EF
  15.076110 1  66F             Rx   d 8 C6 B0 80 EF 9F BE 03 00
  15.096120 1  66F             Rx   d 8 C7 80 0F EF A0 83 EF A0
  15.116080 1  66F             Rx   d 8 C8 84 EF A0 85 EF A0 86
  15.135720 1  66F             Rx   d 4 C9 EF A0 87
  15.140870 1  67C             Rx   d 7 80 03 1C 56 10 A1 06
  15.144890 1  575             Rx   d 4 03 00 00 00
  15.189370 1  67C             Rx   d 3 0A D5 07
  15.206100 1  66F             Rx   d 8 4A D3 07 00 00 00 FF 01
  15.240980 1  67C             Rx   d 8 2A D3 07 00 00 00 02 FF
  15.255980 1  66F             Rx   d 8 80 50 4A D4 07 00 00 47
  15.276140 1  66F             Rx   d 8 4A D3 07 00 00 00 02 01
  15.296000 1  66F             Rx   d 8 C0 00 04 00 00 80 1B 41
  15.316080 1  66F             Rx   d 8 C1 70 70 6C 65 E2 80 99
  15.335830 1  63B             Rx   d 5 3A 56 00 00 00
  15.336980 1  66F             Rx   d 8 C2 73 20 69 50 68 6F 6E
  15.340850 1  67C             Rx   d 7 80 03 1C 56 30 2F 02
  15.344200 1  575             Rx   d 4 03 00 00 00
  15.355980 1  66F             Rx   d 8 C3 65 20 33 47 20 69 4F
  15.376080 1  66F             Rx   d 8 C4 53 20 34 2E 31 01 00
  15.396060 1  66F             Rx   d 8 C5 80 0A 54 2D 4D 6F 62
  15.416080 1  66F             Rx   d 8 C6 69 6C 65 20 44 02 00
  15.436090 1  66F             Rx   d 8 C7 80 06 EF B0 80 EF 9F
  15.456130 1  66F             Rx   d 8 C8 BE 03 00 80 0F EF A0
  15.476120 1  66F             Rx   d 8 C9 83 EF A0 84 EF A0 85
  15.496040 1  66F             Rx   d 7 CA EF A0 86 EF A0 87
  15.508480 1  67C             Rx   d 3 0A D5 07
  15.527120 1  66F             Rx   d 8 4A D3 07 00 00 00 FF 01
  15.543120 1  575             Rx   d 4 03 00 00 00
  15.559180 1  67C             Rx   d 8 2A D3 07 00 00 00 02 FF
  15.566170 1  63B             Rx   d 8 B0 05 3A 52 80 00 00 FF
  15.576040 1  66F             Rx   d 8 4A D3 07 00 00 00 02 01
  15.585560 1  63B             Rx   d 2 F0 FF
  15.596030 1  66F             Rx   d 8 80 50 4A D4 07 00 00 47
  15.597050 1  63C             Rx   d 3 3B DB FF
  15.599910 1  6C6             Rx   d 7 80 03 1A 52 00 00 05
  15.606160 1  63B             Rx   d 8 90 05 3A 53 80 00 00 FF
  15.609380 1  67C             Rx   d 7 80 03 1C 56 00 9D 01
  15.616100 1  66F             Rx   d 8 C0 00 04 00 00 80 1B 41
  15.625580 1  63B             Rx   d 2 D0 FF
  15.636010 1  66F             Rx   d 8 C1 70 70 6C 65 E2 80 99
  15.646120 1  63B             Rx   d 8 A0 05 3A 54 80 00 00 FF
  15.656000 1  66F             Rx   d 8 C2 73 20 69 50 68 6F 6E
  15.665570 1  63B             Rx   d 2 E0 FF
  15.675990 1  66F             Rx   d 8 C3 65 20 33 47 20 69 4F
  15.687130 1  55B             Rx   d 1 01
  15.696090 1  66F             Rx   d 8 C4 53 20 34 2E 31 01 00
  15.716080 1  66F             Rx   d 8 C5 80 0A 54 2D 4D 6F 62
  15.736100 1  66F             Rx   d 8 C6 69 6C 65 20 44 02 00
  15.743120 1  575             Rx   d 4 03 00 00 00
  15.756130 1  66F             Rx   d 8 C7 80 06 EF B0 80 EF 9F
  15.776150 1  66F             Rx   d 8 C8 BE 03 00 80 0F EF A0
  15.796120 1  66F             Rx   d 8 C9 83 EF A0 84 EF A0 85
  15.816050 1  66F             Rx   d 7 CA EF A0 86 EF A0 87
  15.828660 1  67C             Rx   d 3 0A D5 07
  15.846150 1  66F             Rx   d 8 4A D3 07 00 00 00 FF 01
  15.875890 1  6D2             Rx   d 6 3A 0E 04 03 04 02
  15.880070 1  67C             Rx   d 8 2A D3 07 00 00 00 02 FF
  15.896110 1  66F             Rx   d 8 4A D3 07 00 00 00 02 01
  15.916000 1  66F             Rx   d 8 80 50 4A D4 07 00 00 47
  15.936160 1  66F             Rx   d 8 C0 00 04 00 00 80 1B 41
  15.943120 1  575             Rx   d 4 03 00 00 00
  15.956130 1  66F             Rx   d 8 C1 70 70 6C 65 E2 80 99
  15.976120 1  66F             Rx   d 8 C2 73 20 69 50 68 6F 6E
  15.996110 1  66F             Rx   d 8 C3 65 20 33 47 20 69 4F
  16.016100 1  66F             Rx   d 8 C4 53 20 34 2E 31 01 00
  16.036090 1  66F             Rx   d 8 C5 80 0A 54 2D 4D 6F 62
  16.056120 1  66F             Rx   d 8 C6 69 6C 65 20 44 02 00
  16.076140 1  66F             Rx   d 8 C7 80 06 EF B0 80 EF 9F
  16.096150 1  66F             Rx   d 8 C8 BE 03 00 80 0F EF A0
  16.116130 1  66F             Rx   d 8 C9 83 EF A0 84 EF A0 85
  16.136070 1  66F             Rx   d 7 CA EF A0 86 EF A0 87
  16.143150 1  575             Rx   d 4 03 00 00 00
  16.145960 1  63B             Rx   d 5 4A 56 02 6F 00
  16.149100 1  67C             Rx   d 3 0A D5 07
  16.166030 1  66F             Rx   d 8 4A D3 07 00 00 00 FF 01
  16.195560 1  66F             Rx   d 3 4A D7 01
  16.199640 1  67C             Rx   d 8 2A D3 07 00 00 00 02 FF
  16.216160 1  66F             Rx   d 8 4A D3 07 00 00 00 02 01
  16.236000 1  66F             Rx   d 8 80 50 4A D4 07 00 00 47
  16.248760 1  67C             Rx   d 3 0A D7 01
  16.256240 1  66F             Rx   d 8 C0 00 04 00 00 80 1B 41
  16.276130 1  66F             Rx   d 8 C1 70 70 6C 65 E2 80 99
  16.296120 1  66F             Rx   d 8 C2 73 20 69 50 68 6F 6E
  16.316120 1  66F             Rx   d 8 C3 65 20 33 47 20 69 4F
  16.336120 1  66F             Rx   d 8 C4 53 20 34 2E 31 01 00
  16.343130 1  575             Rx   d 4 03 00 00 00
  16.346160 1  6D5             Rx   d 8 80 05 3A 57 80 00 00 FF
  16.356010 1  66F             Rx   d 8 C5 80 0A 54 2D 4D 6F 62
  16.375620 1  6D5             Rx   d 2 C0 FF
  16.377980 1  66F             Rx   d 8 C6 69 6C 65 20 44 02 00
  16.391170 1  6C6             Rx   d 8 80 05 1A 57 83 00 00 05
  16.396080 1  66F             Rx   d 8 C7 80 06 EF B0 80 EF 9F
  16.406100 1  63B             Rx   d 8 B0 9A 4A 52 00 00 05 0E
  16.416070 1  66F             Rx   d 8 C8 BE 03 00 80 0F EF A0
  16.427080 1  63B             Rx   d 8 F0 2B 34 39 35 33 37 31
  16.436040 1  66F             Rx   d 8 C9 83 EF A0 84 EF A0 85
  16.440440 1  6C6             Rx   d 2 C0 00
  16.446160 1  63B             Rx   d 8 F1 38 30 35 32 39 32 35
  16.456010 1  66F             Rx   d 7 CA EF A0 86 EF A0 87
  16.466050 1  63B             Rx   d 8 F2 01 0E 2B 34 39 35 33
  16.469080 1  67C             Rx   d 3 0A D5 07
  16.486040 1  66F             Rx   d 8 4A D3 07 00 00 00 FF 01
  16.487170 1  63B             Rx   d 8 F3 37 31 38 30 35 32 39
  16.506140 1  63B             Rx   d 8 F4 32 35 FF FF FF FF FF
  16.520060 1  67C             Rx   d 8 2A D3 07 00 00 00 02 FF
  16.526080 1  6D5             Rx   d 8 80 4E 4A 57 C3 00 00 05
  16.527200 1  63B             Rx   d 8 F5 FF 0E 4B 6F 6E 74 61
  16.536050 1  66F             Rx   d 8 4A D3 07 00 00 00 02 01
  16.543130 1  575             Rx   d 4 03 00 00 00
  16.546070 1  63B             Rx   d 8 F6 6B 74 6B 61 74 65 67
  16.556070 1  6D5             Rx   d 8 C0 00 00 00 01 2D 01 01
  16.558460 1  66F             Rx   d 8 80 50 4A D4 07 00 00 47
  16.566100 1  63B             Rx   d 8 F7 6F 72 01 0D 2B 34 39
  16.576080 1  66F             Rx   d 8 C0 00 04 00 00 80 1B 41
  16.586070 1  63B             Rx   d 8 F8 31 37 32 34 34 39 32
  16.588440 1  6D5             Rx   d 8 C1 01 00 0C 2C 20 43 2C
  16.596030 1  66F             Rx   d 8 C1 70 70 6C 65 E2 80 99
  16.597050 1  63C             Rx   d 3 3B DC FF
  16.607170 1  63B             Rx   d 8 F9 35 30 39 FF FF FF FF
  16.615970 1  6D5             Rx   d 8 C2 20 C4 8C 2C 20 44 20
  16.617120 1  66F             Rx   d 8 C2 73 20 69 50 68 6F 6E
  16.626120 1  63B             Rx   d 8 FA FF FF 0E 4B 6F 6E 74
  16.636010 1  66F             Rx   d 8 C3 65 20 33 47 20 69 4F
  16.646060 1  63B             Rx   d 8 FB 61 6B 74 6B 61 74 65
  16.647220 1  6D5             Rx   d 8 C3 42 01 01 02 00 0E 2C
  16.656030 1  66F             Rx   d 8 C4 53 20 34 2E 31 01 00
  16.666050 1  63B             Rx   d 8 FC 67 6F 72 01 0D 2B 34
  16.675990 1  6D5             Rx   d 8 C4 20 4A 2C 20 4B 2C 20
  16.677120 1  66F             Rx   d 8 C5 80 0A 54 2D 4D 6F 62
  16.686090 1  63B             Rx   d 8 FD 39 31 37 32 34 34 39
  16.686670 1  55B             Rx   d 1 01
  16.696020 1  66F             Rx   d 8 C6 69 6C 65 20 44 02 00
  16.706120 1  63B             Rx   d 8 FE 32 35 30 39 FF FF FF
  16.707250 1  6D5             Rx   d 8 C5 4C 2C 20 4D 20 49 01
  16.716040 1  66F             Rx   d 8 C7 80 06 EF B0 80 EF 9F
  16.726150 1  63B             Rx   d 8 FF FF FF FF 06 39 39 30
  16.736000 1  6D5             Rx   d 8 C6 01 03 00 0B 2C 20 53
  16.738400 1  66F             Rx   d 8 C8 BE 03 00 80 0F EF A0
  16.743150 1  575             Rx   d 4 03 00 00 00
  16.746120 1  63B             Rx   d 8 F0 39 34 36 01 06 39 39
  16.756060 1  66F             Rx   d 8 C9 83 EF A0 84 EF A0 85
  16.766100 1  63B             Rx   d 8 F1 30 39 34 36 FF FF FF
  16.767240 1  6D5             Rx   d 8 C7 2C 20 C5 A0 2C 20 C5
  16.775980 1  66F             Rx   d 7 CA EF A0 86 EF A0 87
  16.787160 1  63B             Rx   d 8 F2 FF FF FF 06 39 39 30
  16.790750 1  67C             Rx   d 3 0A D5 07
  16.796100 1  6D5             Rx   d 8 C8 98 01 01 04 00 0A 2C
  16.806060 1  66F             Rx   d 8 4A D3 07 00 00 00 FF 01
  16.807190 1  63B             Rx   d 8 F3 39 34 36 01 06 39 39
  16.826120 1  63B             Rx   d 8 F4 30 39 34 36 FF FF FF
  16.827270 1  6D5             Rx   d 8 C9 20 59 2C 20 5A 20 2C
  16.839300 1  67C             Rx   d 8 2A D3 07 00 00 00 02 FF
  16.845880 1  63B             Rx   d 4 F5 FF FF FF
  16.855770 1  6D5             Rx   d 5 CA 20 58 01 01
  16.856960 1  66F             Rx   d 8 4A D3 07 00 00 00 02 01
  16.861970 1  6C6             Rx   d 7 90 03 1A 53 00 00 05
  16.876090 1  66F             Rx   d 8 80 53 4A D4 07 00 00 47
  16.876870 1  6D2             Rx   d 3 3A 0F 09
  16.896210 1  66F             Rx   d 8 C0 00 04 00 00 80 1B 41
  16.916140 1  66F             Rx   d 8 C1 70 70 6C 65 E2 80 99
  16.936160 1  66F             Rx   d 8 C2 73 20 69 50 68 6F 6E
  16.943150 1  575             Rx   d 4 03 00 00 00
  16.956150 1  63B             Rx   d 8 90 BA 4A 53 00 00 05 0F
  16.957310 1  66F             Rx   d 8 C3 65 20 33 47 20 69 4F
  16.976020 1  66F             Rx   d 8 C4 53 20 34 2E 31 01 00
  16.977140 1  63B             Rx   d 8 D0 3B 6D 61 74 74 68 69
  16.991210 1  67C             Rx   d 8 2A D3 07 00 00 07 01 FF
  16.996140 1  63B             Rx   d 8 D1 61 73 20 57 61 73 63
  16.997270 1  66F             Rx   d 8 C5 80 0A 54 2D 4D 6F 62
  17.016050 1  66F             Rx   d 8 4A D3 07 00 07 07 01 01
  17.017180 1  63B             Rx   d 8 D2 68 01 0D 2B 34 39 31
  17.035990 1  66F             Rx   d 8 C6 69 6C 65 20 44 02 00
  17.037120 1  63B             Rx   d 8 D3 37 32 31 39 38 30 34
  17.056170 1  63B             Rx   d 8 D4 33 38 FF FF FF FF FF
  17.057350 1  66F             Rx   d 8 C7 80 09 EF B0 80 EF 9F
  17.076050 1  66F             Rx   d 8 C8 BE EF AC 8F 03 00 80
  17.077180 1  63B             Rx   d 8 D5 FF 0F 3B 6D 61 74 74
  17.096080 1  63B             Rx   d 8 D6 68 69 61 73 20 57 61
  17.098480 1  66F             Rx   d 8 C9 0F EF A0 83 EF A0 84
  17.116040 1  66F             Rx   d 8 CA EF A0 85 EF A0 86 EF
  17.117160 1  63B             Rx   d 8 D7 73 63 68 01 0D 2B 34
  17.136200 1  63B             Rx   d 8 D8 39 31 37 32 31 39 38
  17.136950 1  66F             Rx   d 3 CB A0 87
  17.143170 1  575             Rx   d 4 03 00 00 00
  17.150750 1  67C             Rx   d 3 0A D5 07
  17.156230 1  63B             Rx   d 8 D9 30 34 33 38 FF FF FF
  17.176160 1  63B             Rx   d 8 DA FF FF FF 0F 3B 6D 61
  17.196120 1  63B             Rx   d 8 DB 74 74 68 69 61 73 20
  17.216130 1  63B             Rx   d 8 DC 57 61 73 63 68 01 0D
  17.236100 1  63B             Rx   d 8 DD 2B 34 39 31 37 32 31
  17.256160 1  63B             Rx   d 8 DE 39 38 30 34 33 38 FF
  17.276220 1  63B             Rx   d 8 DF FF FF FF FF FF 0E 4B
  17.296120 1  63B             Rx   d 8 D0 6F 6E 74 61 6B 74 6B
  17.316120 1  63B             Rx   d 8 D1 61 74 65 67 6F 72 01
  17.336120 1  63B             Rx   d 8 D2 0D 2B 34 39 31 37 32
  17.343150 1  575             Rx   d 4 03 00 00 00
  17.356130 1  63B             Rx   d 8 D3 34 34 39 32 35 30 39
  17.376200 1  63B             Rx   d 8 D4 FF FF FF FF FF FF 0E
  17.396120 1  63B             Rx   d 8 D5 4B 6F 6E 74 61 6B 74
  17.416110 1  63B             Rx   d 8 D6 6B 61 74 65 67 6F 72
  17.436150 1  63B             Rx   d 8 D7 01 0D 2B 34 39 31 37
  17.456130 1  63B             Rx   d 8 D8 32 31 37 39 39 33 31
  17.476200 1  63B             Rx   d 8 D9 30 FF FF FF FF FF FF
  17.491150 1  6C6             Rx   d 7 80 03 1A 54 00 00 05
  17.536050 1  63B             Rx   d 8 A0 7C 4A 54 00 00 05 06
  17.543160 1  575             Rx   d 4 03 00 00 00
  17.556160 1  63B             Rx   d 8 E0 39 39 30 39 34 36 01
  17.576150 1  63B             Rx   d 8 E1 06 39 39 30 39 34 36
  17.596240 1  63B             Rx   d 8 E2 FF FF FF FF FF FF 06
  17.597040 1  63C             Rx   d 3 3B DD FF
  17.616130 1  63B             Rx   d 8 E3 39 39 30 39 34 36 01
  17.636150 1  63B             Rx   d 8 E4 06 39 39 30 39 34 36
  17.656230 1  63B             Rx   d 8 E5 FF FF FF FF FF FF 06
  17.676160 1  63B             Rx   d 8 E6 39 39 30 39 34 36 01
  17.686590 1  55B             Rx   d 1 01
  17.696140 1  63B             Rx   d 8 E7 06 39 39 30 39 34 36
  17.716220 1  63B             Rx   d 8 E8 FF FF FF FF FF FF 06
  17.736160 1  63B             Rx   d 8 E9 39 39 30 39 34 36 01
  17.743160 1  575             Rx   d 4 03 00 00 00
  17.756160 1  63B             Rx   d 8 EA 06 39 39 30 39 34 36
  17.776260 1  63B             Rx   d 8 EB FF FF FF FF FF FF 0E
  17.796120 1  63B             Rx   d 8 EC 2B 34 39 35 33 37 31
  17.816160 1  63B             Rx   d 8 ED 38 30 35 32 39 32 35
  17.836140 1  63B             Rx   d 8 EE 01 0E 2B 34 39 35 33
  17.856160 1  63B             Rx   d 8 EF 37 31 38 30 35 32 39
  17.876160 1  6D2             Rx   d 8 90 08 3A 10 1E C0 DF FE
  17.877360 1  63B             Rx   d 8 E0 32 35 FF FF FF FF FF
  17.895610 1  63B             Rx   d 2 E1 FF
  17.905850 1  6D2             Rx   d 5 D0 D5 09 01 00
  17.943160 1  575             Rx   d 4 03 00 00 00
  17.995770 1  66F             Rx   d 4 3A D1 01 01
  18.143190 1  575             Rx   d 4 03 00 00 00
  18.343170 1  575             Rx   d 4 03 00 00 00
  18.526150 1  63B             Rx   d 5 80 01 3A 59 00
  18.543180 1  575             Rx   d 4 03 00 00 00
  18.597000 1  63C             Rx   d 3 3B E5 01
  18.687240 1  55B             Rx   d 1 01
  18.743180 1  575             Rx   d 4 03 00 00 00
  18.876150 1  6D2             Rx   d 8 80 2C 3A 12 02 6E 61 0C
  18.906220 1  6D2             Rx   d 8 C0 30 30 32 33 36 43 45
  18.936200 1  6D2             Rx   d 8 C1 37 33 32 30 31 1B 41
  18.943190 1  575             Rx   d 4 03 00 00 00
  18.966190 1  6D2             Rx   d 8 C2 70 70 6C 65 E2 80 99
  18.996200 1  66F             Rx   d 8 80 08 3A D2 02 07 08 00
  18.997350 1  6D2             Rx   d 8 C3 73 20 69 50 68 6F 6E
  19.016000 1  66F             Rx   d 5 C0 00 00 00 00
  19.026100 1  6D2             Rx   d 8 C4 65 20 33 47 20 69 4F
  19.056040 1  6D2             Rx   d 6 C5 53 20 34 2E 31
  19.101820 1  6C6             Rx   d 7 80 03 1A 52 00 05 05
  19.143210 1  575             Rx   d 4 03 00 00 00
  19.152480 1  6C6             Rx   d 8 80 05 1A 57 93 04 00 05
  19.166140 1  63B             Rx   d 8 B0 80 4A 52 00 05 04 0E
  19.186190 1  63B             Rx   d 8 F0 4B 6F 6E 74 61 6B 74
  19.202560 1  6C6             Rx   d 2 C0 00
  19.206260 1  63B             Rx   d 8 F1 6B 61 74 65 67 6F 72
  19.226190 1  63B             Rx   d 8 F2 01 0D 2B 34 39 31 37
  19.246180 1  63B             Rx   d 8 F3 32 31 37 39 39 33 31
  19.266280 1  63B             Rx   d 8 F4 30 FF FF FF FF FF FF
  19.286120 1  6D5             Rx   d 8 80 60 4A 57 D3 04 00 05
  19.287230 1  63B             Rx   d 8 F5 0E 4B 6F 6E 74 61 6B
  19.307180 1  63B             Rx   d 8 F6 74 6B 61 74 65 67 6F
  19.316090 1  6D5             Rx   d 8 C0 00 05 00 0D 3B 41 68
  19.326160 1  63B             Rx   d 8 F7 72 01 0D 2B 34 39 31
  19.343200 1  575             Rx   d 4 03 00 00 00
  19.346060 1  6D5             Rx   d 8 C1 6D 61 64 20 53 68 6D
  19.347200 1  63B             Rx   d 8 F8 37 32 34 34 39 32 35
  19.366250 1  63B             Rx   d 8 F9 30 39 FF FF FF FF FF
  19.376090 1  6D5             Rx   d 8 C2 65 73 69 01 01 06 00
  19.386190 1  63B             Rx   d 8 FA FF 0E 4B 6F 6E 74 61
  19.406050 1  6D5             Rx   d 8 C3 0F 3B 41 6C 65 78 61
  19.407180 1  63B             Rx   d 8 FB 6B 74 6B 61 74 65 67
  19.426190 1  63B             Rx   d 8 FC 6F 72 01 0D 2B 34 39
  19.436070 1  6D5             Rx   d 8 C4 6E 64 65 72 20 5A 69
  19.446190 1  63B             Rx   d 8 FD 31 37 32 34 34 39 32
  19.466080 1  6D5             Rx   d 8 C5 74 7A 01 01 07 00 09
  19.467270 1  63B             Rx   d 8 FE 35 30 39 FF FF FF FF
  19.487230 1  63B             Rx   d 8 FF FF FF 07 75 6E 6B 6E
  19.496050 1  6D5             Rx   d 8 C6 3B 61 6C 69 20 55 73
  19.506210 1  63B             Rx   d 8 F0 6F 77 6E 01 01 00 FF
  19.526080 1  6D5             Rx   d 8 C7 65 72 01 01 08 00 0E
  19.527120 1  63B             Rx   d 6 F1 FF FF FF FF FF
  19.543450 1  6C6             Rx   d 7 90 03 1A 53 00 05 05
  19.544310 1  575             Rx   d 4 03 00 00 00
  19.556280 1  6D5             Rx   d 8 C8 3B 41 6E 64 72 65 61
  19.586200 1  6D5             Rx   d 8 C9 73 20 47 65 68 6C 65
  19.596980 1  63C             Rx   d 3 3B E6 00
  19.616260 1  6D5             Rx   d 8 CA 01 01 09 00 0F 3B 41
  19.626210 1  63B             Rx   d 8 90 B7 4A 53 00 05 05 0E
  19.646050 1  6D5             Rx   d 8 CB 6E 64 72 65 61 73 21
  19.647180 1  63B             Rx   d 8 D0 4B 6F 6E 74 61 6B 74
  19.667200 1  63B             Rx   d 8 D1 6B 61 74 65 67 6F 72
  19.676070 1  6D5             Rx   d 8 CC 20 42 65 73 6C 65 01
  19.686180 1  63B             Rx   d 8 D2 01 0D 2B 34 39 31 37
  19.686760 1  55B             Rx   d 1 01
  19.705600 1  6D5             Rx   d 2 CD 01
  19.706710 1  63B             Rx   d 8 D3 32 31 37 39 39 33 31
  19.723230 1  6C6             Rx   d 8 80 05 1A 57 93 09 00 05
  19.726310 1  63B             Rx   d 8 D4 30 FF FF FF FF FF FF
  19.743200 1  575             Rx   d 4 03 00 00 00
  19.746210 1  63B             Rx   d 8 D5 0E 4B 6F 6E 74 61 6B
  19.766180 1  63B             Rx   d 8 D6 74 6B 61 74 65 67 6F
  19.771920 1  6C6             Rx   d 2 C0 00
  19.786240 1  63B             Rx   d 8 D7 72 01 0D 2B 34 39 31
  19.806190 1  63B             Rx   d 8 D8 37 32 31 37 39 39 33
  19.826270 1  63B             Rx   d 8 D9 31 30 FF FF FF FF FF
  19.847220 1  63B             Rx   d 8 DA FF 0E 4B 6F 6E 74 61
  19.866190 1  63B             Rx   d 8 DB 6B 74 6B 61 74 65 67
  19.875790 1  6D2             Rx   d 3 3A 13 01
  19.886120 1  63B             Rx   d 8 DC 6F 72 01 0D 2B 34 39
  19.888480 1  6D5             Rx   d 8 80 68 4A 57 D3 09 00 05
  19.906190 1  63B             Rx   d 8 DD 31 37 32 31 37 39 39
  19.916130 1  6D5             Rx   d 8 C0 00 0A 00 0F 3B 41 72
  19.926240 1  63B             Rx   d 8 DE 33 31 30 FF FF FF FF
  19.943210 1  575             Rx   d 4 03 00 00 00
  19.946080 1  6D5             Rx   d 8 C1 6E 65 20 4B 61 68 72
  19.947230 1  63B             Rx   d 8 DF FF FF 0E 4B 6F 6E 74
  19.966210 1  63B             Rx   d 8 D0 61 6B 74 6B 61 74 65
  19.976080 1  6D5             Rx   d 8 C2 73 74 65 64 74 01 01
  19.986210 1  63B             Rx   d 8 D1 67 6F 72 01 0D 2B 34
  19.996160 1  66F             Rx   d 8 3A D3 07 00 07 07 01 01
  20.006150 1  63B             Rx   d 8 D2 39 31 37 32 31 37 39
  20.007280 1  6D5             Rx   d 8 C3 0B 00 0F 3B 42 65 6E
  20.027240 1  63B             Rx   d 8 D3 39 33 31 30 FF FF FF
  20.036080 1  6D5             Rx   d 8 C4 20 52 65 63 6B 74 65
  20.046240 1  63B             Rx   d 8 D4 FF FF FF 0E 4B 6F 6E
  20.066080 1  6D5             Rx   d 8 C5 6E 77 61 6C 02 01 01
  20.067200 1  63B             Rx   d 8 D5 74 61 6B 74 6B 61 74
  20.086200 1  63B             Rx   d 8 D6 65 67 6F 72 01 0D 2B
  20.096100 1  6D5             Rx   d 8 C6 0C 00 0E 3B 42 6F 72
  20.106200 1  63B             Rx   d 8 D7 34 39 31 37 32 31 37
  20.126080 1  6D5             Rx   d 8 C7 64 69 6E 20 41 6E 64
  20.127230 1  63B             Rx   d 8 D8 39 39 33 31 30 FF FF
  20.143240 1  575             Rx   d 4 03 00 00 00
  20.146080 1  63B             Rx   d 5 D9 FF FF FF FF
  20.156110 1  6D5             Rx   d 8 C8 72 65 61 01 01 0D 00
  20.162660 1  6C6             Rx   d 7 80 03 1A 54 00 05 05
  20.186200 1  6D5             Rx   d 8 C9 0E 3B 42 6F 75 72 67
  20.216230 1  6D5             Rx   d 8 CA 65 74 74 20 41 6C 65
  20.246270 1  6D5             Rx   d 8 CB 78 01 01 0E 00 0F 3B
  20.256280 1  63B             Rx   d 8 A0 B1 4A 54 00 05 05 0E
  20.276080 1  6D5             Rx   d 8 CC 43 68 72 69 73 74 69
  20.277210 1  63B             Rx   d 8 E0 4B 6F 6E 74 61 6B 74
  20.296200 1  63B             Rx   d 8 E1 6B 61 74 65 67 6F 72
  20.306070 1  6D5             Rx   d 8 CD 61 20 48 61 6D 61 63
  20.316230 1  63B             Rx   d 8 E2 01 0B 30 31 37 32 34
  20.335710 1  6D5             Rx   d 3 CE 01 01
  20.338050 1  63B             Rx   d 8 E3 34 39 32 35 30 39 FF
  20.343210 1  575             Rx   d 4 03 00 00 00
  20.353340 1  6C6             Rx   d 8 80 05 1A 57 9F 0E 00 0A
  20.356350 1  63B             Rx   d 8 E4 FF FF FF FF FF 0F 3B
  20.376230 1  63B             Rx   d 8 E5 6D 61 74 74 68 69 61
  20.396250 1  63B             Rx   d 8 E6 73 20 57 61 73 63 68
  20.401900 1  6C6             Rx   d 2 C0 00
  20.416170 1  6D5             Rx   d 8 80 19 4A 57 DF 0E 00 0A
  20.417310 1  63B             Rx   d 8 E7 01 0B 30 31 37 32 31
  20.436250 1  63B             Rx   d 8 E8 39 38 30 34 33 38 FF
  20.446160 1  6D5             Rx   d 8 C0 00 0F 00 10 00 11 00
  20.456290 1  63B             Rx   d 8 E9 FF FF FF FF FF 0F 3B
  20.476140 1  6D5             Rx   d 8 C1 12 00 13 00 14 00 15
  20.477250 1  63B             Rx   d 8 EA 6D 61 74 74 68 69 61
  20.496230 1  63B             Rx   d 8 EB 73 20 57 61 73 63 68
  20.506150 1  6D5             Rx   d 8 C2 00 16 00 17 00 18 00
  20.516230 1  63B             Rx   d 8 EC 01 0B 30 31 37 32 31
  20.522770 1  6C6             Rx   d 8 80 05 1A 57 9F 18 00 0A
  20.536250 1  63B             Rx   d 8 ED 39 38 30 34 33 38 FF
  20.543210 1  575             Rx   d 4 03 00 00 00
  20.556360 1  63B             Rx   d 8 EE FF FF FF FF FF 0F 3B
  20.571980 1  6C6             Rx   d 2 C0 00
  20.576340 1  63B             Rx   d 8 EF 4D 61 72 63 20 47 72
  20.586160 1  6D5             Rx   d 8 80 19 4A 57 DF 18 00 0A
  20.596240 1  63B             Rx   d 8 E0 61 75 70 6D 61 6E 6E
  20.597340 1  63C             Rx   d 6 3B E7 FF FF FF FF
  20.616160 1  6D5             Rx   d 8 C0 00 19 00 1A 00 1B 00
  20.617290 1  63B             Rx   d 8 E1 01 0B 30 31 37 33 32
  20.636230 1  63B             Rx   d 8 E2 33 33 35 33 33 37 FF
  20.646160 1  6D5             Rx   d 8 C1 1C 00 1D 00 1E 00 1F
  20.656310 1  63B             Rx   d 8 E3 FF FF FF FF FF 0F 3B
  20.676160 1  6D5             Rx   d 8 C2 00 20 00 21 00 22 00
  20.677290 1  63B             Rx   d 8 E4 4D 61 72 63 20 47 72
  20.687290 1  55B             Rx   d 1 01
  20.692710 1  6C6             Rx   d 8 80 05 1A 57 9F 22 00 0A
  20.696280 1  63B             Rx   d 8 E5 61 75 70 6D 61 6E 6E
  20.716250 1  63B             Rx   d 8 E6 01 0B 30 31 37 33 32
  20.736250 1  63B             Rx   d 8 E7 33 33 35 33 33 37 FF
  20.743020 1  6C6             Rx   d 2 C0 00
  20.743880 1  575             Rx   d 4 03 00 00 00
  20.756200 1  6D5             Rx   d 8 80 19 4A 57 DF 22 00 0A
  20.757230 1  63B             Rx   d 6 E8 FF FF FF FF FF
  20.786290 1  6D5             Rx   d 8 C0 00 23 00 24 00 25 00
  20.792810 1  6C6             Rx   d 7 90 03 1A 53 00 0A 05
  20.816310 1  6D5             Rx   d 8 C1 26 00 27 00 28 00 29
  20.846320 1  6D5             Rx   d 8 C2 00 2A 00 2B 00 2C 00
  20.862560 1  6C6             Rx   d 8 80 05 1A 57 9F 2C 00 0A
  20.866280 1  63B             Rx   d 8 90 99 4A 53 00 0A 05 0E
  20.875830 1  6D2             Rx   d 3 3A 14 00
  20.886160 1  63B             Rx   d 8 D0 4B 6F 6E 74 61 6B 74
  20.906240 1  63B             Rx   d 8 D1 6B 61 74 65 67 6F 72
  20.912430 1  6C6             Rx   d 2 C0 00
  20.927280 1  6D5             Rx   d 8 80 19 4A 57 DF 2C 00 0A
  20.928400 1  63B             Rx   d 8 D2 01 0D 2B 34 39 31 37
  20.943230 1  575             Rx   d 4 03 00 00 00
  20.946230 1  63B             Rx   d 8 D3 32 31 37 39 39 33 31
  20.956190 1  6D5             Rx   d 8 C0 00 2D 00 2E 00 2F 00
  20.966310 1  63B             Rx   d 8 D4 30 FF FF FF FF FF FF
  20.986160 1  6D5             Rx   d 8 C1 30 00 31 00 32 00 33
  20.987280 1  63B             Rx   d 8 D5 0E 4B 6F 6E 74 61 6B
  20.995750 1  66F             Rx   d 3 3A D5 00
  21.006190 1  63B             Rx   d 8 D6 74 6B 61 74 65 67 6F
  21.016190 1  6D5             Rx   d 8 C2 00 34 00 35 00 36 00
  21.026230 1  63B             Rx   d 8 D7 72 01 0D 2B 34 39 31
  21.032960 1  6C6             Rx   d 8 80 05 1A 57 9F 36 00 0A
  21.046240 1  63B             Rx   d 8 D8 37 32 31 37 39 39 33
  21.066320 1  63B             Rx   d 8 D9 31 30 FF FF FF FF FF
  21.082200 1  6C6             Rx   d 2 C0 00
  21.086340 1  63B             Rx   d 8 DA FF 0E 4B 6F 6E 74 61
  21.096180 1  6D5             Rx   d 8 80 19 4A 57 DF 36 00 0A
  21.107230 1  63B             Rx   d 8 DB 6B 74 6B 61 74 65 67
  21.126190 1  6D5             Rx   d 8 C0 00 37 00 38 00 39 00
  21.127310 1  63B             Rx   d 8 DC 6F 72 01 0D 2B 34 39
  21.143250 1  575             Rx   d 4 03 00 00 00
  21.146280 1  63B             Rx   d 8 DD 31 37 32 31 37 39 39
  21.156200 1  6D5             Rx   d 8 C1 3A 00 3B 00 3C 00 3D
  21.166280 1  63B             Rx   d 8 DE 33 31 30 FF FF FF FF
  21.186210 1  6D5             Rx   d 8 C2 00 3E 00 3F 00 40 00
  21.187380 1  63B             Rx   d 8 DF FF FF 06 39 39 30 39
  21.195760 1  66F             Rx   d 3 4A D7 01
  21.202960 1  6C6             Rx   d 8 80 05 1A 57 9F 40 00 0A
  21.206250 1  63B             Rx   d 8 D0 34 36 01 06 39 39 30
  21.208670 1  67C             Rx   d 3 0A D7 01
  21.226310 1  63B             Rx   d 8 D1 39 34 36 FF FF FF FF
  21.246290 1  63B             Rx   d 8 D2 FF FF 06 39 39 30 39
  21.252400 1  6C6             Rx   d 2 C0 00
  21.266210 1  6D5             Rx   d 8 80 19 4A 57 DF 40 00 0A
  21.267360 1  63B             Rx   d 8 D3 34 36 01 06 39 39 30
  21.287310 1  63B             Rx   d 8 D4 39 34 36 FF FF FF FF
  21.296190 1  6D5             Rx   d 8 C0 00 41 00 42 00 43 00
  21.305880 1  63B             Rx   d 3 D5 FF FF
  21.323100 1  6C6             Rx   d 7 80 03 1A 54 00 0A 05
  21.326240 1  6D5             Rx   d 8 C1 44 00 45 00 46 00 47
  21.343240 1  575             Rx   d 4 03 00 00 00
  21.356320 1  6D5             Rx   d 8 C2 00 48 00 49 00 4A 00
  21.373350 1  6C6             Rx   d 8 80 05 1A 57 9F 4A 00 0A
  21.406290 1  63B             Rx   d 8 A0 B4 4A 54 00 0A 05 0F
  21.422370 1  6C6             Rx   d 2 C0 00
  21.426350 1  63B             Rx   d 8 E0 3B 4D 61 72 63 20 47
  21.436200 1  6D5             Rx   d 8 80 19 4A 57 DF 4A 00 0A
  21.446250 1  63B             Rx   d 8 E1 72 61 75 70 6D 61 6E
  21.467330 1  6D5             Rx   d 8 C0 00 4B 00 4C 00 4D 00
  21.468460 1  63B             Rx   d 8 E2 6E 01 0B 30 31 37 33
  21.486240 1  63B             Rx   d 8 E3 32 33 33 35 33 33 37
  21.496160 1  6D5             Rx   d 8 C1 4E 00 4F 00 50 00 51
  21.506320 1  63B             Rx   d 8 E4 FF FF FF FF FF FF 0E
  21.526160 1  6D5             Rx   d 8 C2 00 52 00 53 00 54 00
  21.527290 1  63B             Rx   d 8 E5 4B 6F 6E 74 61 6B 74
  21.543240 1  575             Rx   d 4 03 00 00 00
  21.544420 1  6C6             Rx   d 8 80 05 1A 57 9F 54 00 0A
  21.546290 1  63B             Rx   d 8 E6 6B 61 74 65 67 6F 72
  21.566280 1  63B             Rx   d 8 E7 01 0B 30 31 37 32 34
  21.586280 1  63B             Rx   d 8 E8 34 39 32 35 30 39 FF
  21.592540 1  6C6             Rx   d 2 C0 00
  21.598080 1  63C             Rx   d 8 3B C2 03 00 2F 00 03 04
  21.606190 1  6D5             Rx   d 8 80 19 4A 57 DF 54 00 0A
  21.607390 1  63B             Rx   d 8 E9 FF FF FF FF FF 0E 4B
  21.626240 1  63B             Rx   d 8 EA 6F 6E 74 61 6B 74 6B
  21.636180 1  6D5             Rx   d 8 C0 00 55 00 56 00 57 00
  21.647270 1  63B             Rx   d 8 EB 61 74 65 67 6F 72 01
  21.666160 1  6D5             Rx   d 8 C1 58 00 59 00 5A 00 5B
  21.667280 1  63B             Rx   d 8 EC 0D 2B 34 39 31 37 32
  21.686250 1  63B             Rx   d 8 ED 31 37 39 39 33 31 30
  21.686830 1  55B             Rx   d 1 01
  21.696190 1  6D5             Rx   d 8 C2 00 5C 00 5D 00 5E 00
  21.706350 1  63B             Rx   d 8 EE FF FF FF FF FF FF 0E
  21.713470 1  6C6             Rx   d 8 80 05 1A 57 9F 5E 00 0A
  21.726260 1  63B             Rx   d 8 EF 4B 6F 6E 74 61 6B 74
  21.743240 1  575             Rx   d 4 03 00 00 00
  21.746290 1  63B             Rx   d 8 E0 6B 61 74 65 67 6F 72
  21.762810 1  6C6             Rx   d 2 C0 00
  21.766360 1  63B             Rx   d 8 E1 01 0D 2B 34 39 31 37
  21.776220 1  6D5             Rx   d 8 80 19 4A 57 DF 5E 00 0A
  21.786260 1  63B             Rx   d 8 E2 32 31 37 39 39 33 31
  21.806230 1  6D5             Rx   d 8 C0 00 5F 00 60 00 61 00
  21.807440 1  63B             Rx   d 8 E3 30 FF FF FF FF FF FF
  21.827280 1  63B             Rx   d 8 E4 0E 4B 6F 6E 74 61 6B
  21.836170 1  6D5             Rx   d 8 C1 62 00 63 00 64 00 65
  21.846250 1  63B             Rx   d 8 E5 74 6B 61 74 65 67 6F
  21.866180 1  6D5             Rx   d 8 C2 00 66 00 67 00 68 00
  21.867310 1  63B             Rx   d 8 E6 72 01 0D 2B 34 39 31
  21.875840 1  6D2             Rx   d 3 3A 17 63
  21.886170 1  63B             Rx   d 8 E7 37 32 31 37 39 39 33
  21.893320 1  6C6             Rx   d 8 80 05 1A 57 9F 68 00 0A
  21.906350 1  63B             Rx   d 8 E8 31 30 FF FF FF FF FF
  21.925810 1  63B             Rx   d 2 E9 FF
  21.943490 1  6C6             Rx   d 7 90 03 1A 53 00 0F 05
  21.944360 1  575             Rx   d 4 03 00 00 00
  21.976340 1  63B             Rx   d 8 90 18 4A 53 00 0F 01 06
  21.992510 1  6C6             Rx   d 2 C0 00
  21.996400 1  63B             Rx   d 8 D0 39 39 30 39 34 36 01
  22.007330 1  6D5             Rx   d 8 80 11 4A 57 DF 68 00 06
  22.016280 1  63B             Rx   d 8 D1 06 39 39 30 39 34 36
  22.036230 1  6D5             Rx   d 8 C0 00 69 00 6A 00 6B 00
  22.037370 1  63B             Rx   d 7 D2 FF FF FF FF FF FF
  22.053470 1  6C6             Rx   d 7 80 03 1A 54 00 0F 05
  22.066310 1  6D5             Rx   d 7 C1 6C 00 6D 00 6E 00
  22.126320 1  63B             Rx   d 8 A0 AE 4A 54 00 0F 05 0F
  22.143280 1  575             Rx   d 4 03 00 00 00
  22.146320 1  63B             Rx   d 8 E0 3B 6D 61 74 74 68 69
  22.166270 1  63B             Rx   d 8 E1 61 73 20 57 61 73 63
  22.188390 1  66F             Rx   d 6 3A D6 04 00 00 00
  22.189520 1  63B             Rx   d 8 E2 68 01 0D 2B 34 39 31
  22.206260 1  63B             Rx   d 8 E3 37 32 31 39 38 30 34
  22.226350 1  63B             Rx   d 8 E4 33 38 FF FF FF FF FF
  22.246290 1  63B             Rx   d 8 E5 FF 0B 30 35 33 36 31
  22.266280 1  63B             Rx   d 8 E6 39 34 39 36 33 39 01
  22.286280 1  63B             Rx   d 8 E7 0B 30 35 33 36 31 39
  22.306330 1  63B             Rx   d 8 E8 34 39 36 33 39 FF FF
  22.326330 1  63B             Rx   d 8 E9 FF FF FF FF 0B 30 35
  22.343260 1  575             Rx   d 4 03 00 00 00
  22.346290 1  63B             Rx   d 8 EA 33 36 31 39 34 39 36
  22.367290 1  63B             Rx   d 8 EB 33 39 01 0B 30 35 33
  22.386280 1  63B             Rx   d 8 EC 36 31 39 34 39 36 33
  22.406360 1  63B             Rx   d 8 ED 39 FF FF FF FF FF FF
  22.426290 1  63B             Rx   d 8 EE 0E 4B 6F 6E 74 61 6B
  22.446280 1  63B             Rx   d 8 EF 74 6B 61 74 65 67 6F
  22.466300 1  63B             Rx   d 8 E0 72 01 0D 2B 34 39 31
  22.486270 1  63B             Rx   d 8 E1 37 32 31 37 39 39 33
  22.506360 1  63B             Rx   d 8 E2 31 30 FF FF FF FF FF
  22.526320 1  63B             Rx   d 8 E3 FF 0E 4B 6F 6E 74 61
  22.543260 1  575             Rx   d 4 03 00 00 00
  22.547280 1  63B             Rx   d 8 E4 6B 74 6B 61 74 65 67
  22.566280 1  63B             Rx   d 8 E5 6F 72 01 0D 2B 34 39
  22.586280 1  63B             Rx   d 8 E6 31 37 32 31 37 39 39
  22.597430 1  63C             Rx   d 8 80 08 3B C3 38 03 CF FF
  22.606340 1  63B             Rx   d 8 E7 33 31 30 FF FF FF FF
  22.617160 1  63C             Rx   d 5 C0 77 00 80 00
  22.625930 1  63B             Rx   d 3 E8 FF FF
  22.687270 1  55B             Rx   d 1 01
  22.743270 1  575             Rx   d 4 03 00 00 00
  22.875880 1  6D2             Rx   d 3 3A 19 00
  22.943270 1  575             Rx   d 4 03 00 00 00
  23.116140 1  63B             Rx   d 6 3A 5B 00 00 00 00
  23.143310 1  575             Rx   d 4 03 00 00 00
  23.185800 1  66F             Rx   d 3 3A D7 01
  23.343280 1  575             Rx   d 4 03 00 00 00
  23.543280 1  575             Rx   d 4 03 00 00 00
  23.596970 1  63C             Rx   d 3 3B C4 0A
  23.687240 1  55B             Rx   d 1 01
  23.743280 1  575             Rx   d 4 03 00 00 00
  23.876370 1  6D2             Rx   d 8 80 08 3A 1A 00 00 00 00
  23.906170 1  6D2             Rx   d 5 C0 00 00 00 00
  23.943290 1  575             Rx   d 4 03 00 00 00
  24.116300 1  63B             Rx   d 8 3A 42 03 00 29 00 03 00
  24.143320 1  575             Rx   d 4 03 00 00 00
  24.186290 1  66F             Rx   d 8 3A C2 03 00 2B 00 03 01
  24.343300 1  575             Rx   d 4 03 00 00 00
  24.543300 1  575             Rx   d 4 03 00 00 00
  24.596980 1  63C             Rx   d 3 3B CE 01
  24.687220 1  55B             Rx   d 1 01
  24.743320 1  575             Rx   d 4 03 00 00 00
  24.875950 1  6D2             Rx   d 3 3A 21 01
  24.943840 1  575             Rx   d 4 03 00 00 00
  25.116330 1  63B             Rx   d 8 3A 43 38 03 FB D4 80 00
  25.143550 1  575             Rx   d 4 03 00 00 00
  25.186360 1  66F             Rx   d 8 80 08 3A C3 38 01 FF 00
  25.206200 1  66F             Rx   d 5 C0 00 00 00 00
  25.343650 1  575             Rx   d 4 03 00 00 00
  25.544480 1  575             Rx   d 4 03 00 00 00
  25.596970 1  63C             Rx   d 3 3B CF 05
  25.687190 1  55B             Rx   d 1 01
  25.744510 1  575             Rx   d 4 03 00 00 00
  25.876000 1  6D2             Rx   d 3 3A 22 00
  25.944480 1  575             Rx   d 4 03 00 00 00
  26.115910 1  63B             Rx   d 3 3A 44 0A
  26.144520 1  575             Rx   d 4 03 00 00 00
  26.185940 1  66F             Rx   d 3 3A C4 0A
  26.205890 1  66F             Rx   d 3 4A D7 01
  26.229630 1  67C             Rx   d 3 0A D7 01
  26.344490 1  575             Rx   d 4 03 00 00 00
  26.544530 1  575             Rx   d 4 03 00 00 00
  26.597440 1  63C             Rx   d 8 80 08 3B D0 1E C0 23 00
  26.617170 1  63C             Rx   d 5 C0 60 00 00 00
  26.686880 1  55B             Rx   d 1 01
  26.744500 1  575             Rx   d 4 03 00 00 00
  26.876420 1  6D2             Rx   d 8 3A 02 03 00 28 00 03 00
  26.944520 1  575             Rx   d 4 03 00 00 00
  27.006440 1  63B             Rx   d 8 B0 05 3A 52 80 00 00 FF
  27.026350 1  63B             Rx   d 8 90 05 3A 53 80 00 00 FF
  27.047520 1  63B             Rx   d 8 A0 05 3A 54 80 00 00 FF
  27.065970 1  63B             Rx   d 2 F0 FF
  27.085840 1  6C6             Rx   d 7 80 03 1A 52 00 00 05
  27.086510 1  63B             Rx   d 2 D0 FF
  27.105880 1  63B             Rx   d 2 E0 FF
  27.144530 1  575             Rx   d 4 03 00 00 00
  27.156520 1  63B             Rx   d 8 B0 9A 4A 52 00 00 05 0E
  27.176460 1  63B             Rx   d 8 F0 2B 34 39 35 33 37 31
  27.185940 1  66F             Rx   d 3 3A CF 00
  27.196450 1  63B             Rx   d 8 F1 38 30 35 32 39 32 35
  27.216460 1  63B             Rx   d 8 F2 01 0E 2B 34 39 35 33
  27.236470 1  63B             Rx   d 8 F3 37 31 38 30 35 32 39
  27.256520 1  63B             Rx   d 8 F4 32 35 FF FF FF FF FF
  27.276460 1  63B             Rx   d 8 F5 FF 0E 4B 6F 6E 74 61
  27.296440 1  63B             Rx   d 8 F6 6B 74 6B 61 74 65 67
  27.316470 1  63B             Rx   d 8 F7 6F 72 01 0D 2B 34 39
  27.336480 1  63B             Rx   d 8 F8 31 37 32 34 34 39 32
  27.344550 1  575             Rx   d 4 03 00 00 00
  27.356540 1  63B             Rx   d 8 F9 35 30 39 FF FF FF FF
  27.376490 1  63B             Rx   d 8 FA FF FF 0E 4B 6F 6E 74
  27.396460 1  63B             Rx   d 8 FB 61 6B 74 6B 61 74 65
  27.416470 1  63B             Rx   d 8 FC 67 6F 72 01 0D 2B 34
  27.436470 1  63B             Rx   d 8 FD 39 31 37 32 34 34 39
  27.456520 1  63B             Rx   d 8 FE 32 35 30 39 FF FF FF
  27.476560 1  63B             Rx   d 8 FF FF FF FF 06 39 39 30
  27.496480 1  63B             Rx   d 8 F0 39 34 36 01 06 39 39
  27.516510 1  63B             Rx   d 8 F1 30 39 34 36 FF FF FF
  27.536520 1  63B             Rx   d 8 F2 FF FF FF 06 39 39 30
  27.544520 1  575             Rx   d 4 03 00 00 00
  27.556480 1  63B             Rx   d 8 F3 39 34 36 01 06 39 39
  27.576530 1  63B             Rx   d 8 F4 30 39 34 36 FF FF FF
  27.596190 1  63B             Rx   d 4 F5 FF FF FF
  27.597470 1  63C             Rx   d 8 90 07 3B D1 05 41 75 78
  27.616070 1  6C6             Rx   d 7 90 03 1A 53 00 00 05
  27.618360 1  63C             Rx   d 4 D0 49 6E 20
  27.687050 1  55B             Rx   d 1 01
  27.706360 1  63B             Rx   d 8 90 BA 4A 53 00 00 05 0F
  27.726460 1  63B             Rx   d 8 D0 3B 6D 61 74 74 68 69
  27.743380 1  575             Rx   d 4 03 00 00 00
  27.746480 1  63B             Rx   d 8 D1 61 73 20 57 61 73 63
  27.767470 1  63B             Rx   d 8 D2 68 01 0D 2B 34 39 31
  27.786480 1  63B             Rx   d 8 D3 37 32 31 39 38 30 34
  27.806540 1  63B             Rx   d 8 D4 33 38 FF FF FF FF FF
  27.826470 1  63B             Rx   d 8 D5 FF 0F 3B 6D 61 74 74
  27.846480 1  63B             Rx   d 8 D6 68 69 61 73 20 57 61
  27.866480 1  63B             Rx   d 8 D7 73 63 68 01 0D 2B 34
  27.876510 1  6D2             Rx   d 8 80 08 3A 03 38 03 FB 7F
  27.887560 1  63B             Rx   d 8 D8 39 31 37 32 31 39 38
  27.906210 1  6D2             Rx   d 5 C0 EB 90 80 00
  27.907380 1  63B             Rx   d 8 D9 30 34 33 38 FF FF FF
  27.926420 1  63B             Rx   d 8 DA FF FF FF 0F 3B 6D 61
  27.943370 1  575             Rx   d 4 03 00 00 00
  27.947470 1  63B             Rx   d 8 DB 74 74 68 69 61 73 20
  27.966480 1  63B             Rx   d 8 DC 57 61 73 63 68 01 0D
  27.987560 1  63B             Rx   d 8 DD 2B 34 39 31 37 32 31
  28.006490 1  63B             Rx   d 8 DE 39 38 30 34 33 38 FF
  28.026560 1  63B             Rx   d 8 DF FF FF FF FF FF 0E 4B
  28.046480 1  63B             Rx   d 8 D0 6F 6E 74 61 6B 74 6B
  28.066480 1  63B             Rx   d 8 D1 61 74 65 67 6F 72 01
  28.087520 1  63B             Rx   d 8 D2 0D 2B 34 39 31 37 32
  28.106480 1  63B             Rx   d 8 D3 34 34 39 32 35 30 39
  28.127560 1  63B             Rx   d 8 D4 FF FF FF FF FF FF 0E
  28.143400 1  575             Rx   d 4 03 00 00 00
  28.147600 1  63B             Rx   d 8 D5 4B 6F 6E 74 61 6B 74
  28.166470 1  63B             Rx   d 8 D6 6B 61 74 65 67 6F 72
  28.186060 1  66F             Rx   d 4 3A D0 01 03
  28.187210 1  63B             Rx   d 8 D7 01 0D 2B 34 39 31 37
  28.206440 1  63B             Rx   d 8 D8 32 31 37 39 39 33 31
  28.226560 1  63B             Rx   d 8 D9 30 FF FF FF FF FF FF
  28.246350 1  6C6             Rx   d 7 80 03 1A 54 00 00 05
  28.296410 1  63B             Rx   d 8 A0 7C 4A 54 00 00 05 06
  28.316510 1  63B             Rx   d 8 E0 39 39 30 39 34 36 01
  28.336520 1  63B             Rx   d 8 E1 06 39 39 30 39 34 36
  28.343390 1  575             Rx   d 4 03 00 00 00
  28.356600 1  63B             Rx   d 8 E2 FF FF FF FF FF FF 06
  28.376510 1  63B             Rx   d 8 E3 39 39 30 39 34 36 01
  28.396510 1  63B             Rx   d 8 E4 06 39 39 30 39 34 36
  28.416580 1  63B             Rx   d 8 E5 FF FF FF FF FF FF 06
  28.436520 1  63B             Rx   d 8 E6 39 39 30 39 34 36 01
  28.456510 1  63B             Rx   d 8 E7 06 39 39 30 39 34 36
  28.476590 1  63B             Rx   d 8 E8 FF FF FF FF FF FF 06
  28.496520 1  63B             Rx   d 8 E9 39 39 30 39 34 36 01
  28.516510 1  63B             Rx   d 8 EA 06 39 39 30 39 34 36
  28.536600 1  63B             Rx   d 8 EB FF FF FF FF FF FF 0E
  28.543390 1  575             Rx   d 4 03 00 00 00
  28.556500 1  63B             Rx   d 8 EC 2B 34 39 35 33 37 31
  28.576550 1  63B             Rx   d 8 ED 38 30 35 32 39 32 35
  28.596500 1  63B             Rx   d 8 EE 01 0E 2B 34 39 35 33
  28.597240 1  63C             Rx   d 3 3B D4 FF
  28.616510 1  63B             Rx   d 8 EF 37 31 38 30 35 32 39
  28.636580 1  63B             Rx   d 8 E0 32 35 FF FF FF FF FF
  28.656050 1  63B             Rx   d 2 E1 FF
  28.676670 1  6C6             Rx   d 7 80 03 1A 52 00 05 05
  28.686980 1  55B             Rx   d 1 01
  28.743390 1  575             Rx   d 4 03 00 00 00
  28.746730 1  63B             Rx   d 8 B0 80 4A 52 00 05 04 0E
  28.766500 1  63B             Rx   d 8 F0 4B 6F 6E 74 61 6B 74
  28.787500 1  63B             Rx   d 8 F1 6B 61 74 65 67 6F 72
  28.806510 1  63B             Rx   d 8 F2 01 0D 2B 34 39 31 37
  28.826500 1  63B             Rx   d 8 F3 32 31 37 39 39 33 31
  28.847590 1  63B             Rx   d 8 F4 30 FF FF FF FF FF FF
  28.866480 1  63B             Rx   d 8 F5 0E 4B 6F 6E 74 61 6B
  28.876080 1  6D2             Rx   d 3 3A 04 0A
  28.887500 1  63B             Rx   d 8 F6 74 6B 61 74 65 67 6F
  28.906500 1  63B             Rx   d 8 F7 72 01 0D 2B 34 39 31
  28.926520 1  63B             Rx   d 8 F8 37 32 34 34 39 32 35
  28.943400 1  575             Rx   d 4 03 00 00 00
  28.947340 1  63B             Rx   d 8 F9 30 39 FF FF FF FF FF
  28.966520 1  63B             Rx   d 8 FA FF 0E 4B 6F 6E 74 61
  28.987680 1  63B             Rx   d 8 FB 6B 74 6B 61 74 65 67
  29.006520 1  63B             Rx   d 8 FC 6F 72 01 0D 2B 34 39
  29.027520 1  63B             Rx   d 8 FD 31 37 32 34 34 39 32
  29.046580 1  63B             Rx   d 8 FE 35 30 39 FF FF FF FF
  29.066560 1  63B             Rx   d 8 FF FF FF 07 75 6E 6B 6E
  29.087600 1  63B             Rx   d 8 F0 6F 77 6E 01 01 00 FF
  29.106430 1  63B             Rx   d 6 F1 FF FF FF FF FF
  29.127150 1  6C6             Rx   d 7 90 03 1A 53 00 05 05
  29.143430 1  575             Rx   d 4 03 00 00 00
  29.187200 1  66F             Rx   d 4 3A D1 01 01
  29.216520 1  63B             Rx   d 8 90 B7 4A 53 00 05 05 0E
  29.236520 1  63B             Rx   d 8 D0 4B 6F 6E 74 61 6B 74
  29.256520 1  63B             Rx   d 8 D1 6B 61 74 65 67 6F 72
  29.276530 1  63B             Rx   d 8 D2 01 0D 2B 34 39 31 37
  29.296520 1  63B             Rx   d 8 D3 32 31 37 39 39 33 31
  29.316610 1  63B             Rx   d 8 D4 30 FF FF FF FF FF FF
  29.338100 1  63B             Rx   d 8 D5 0E 4B 6F 6E 74 61 6B
  29.343410 1  575             Rx   d 4 03 00 00 00
  29.356520 1  63B             Rx   d 8 D6 74 6B 61 74 65 67 6F
  29.376550 1  63B             Rx   d 8 D7 72 01 0D 2B 34 39 31
  29.396530 1  63B             Rx   d 8 D8 37 32 31 37 39 39 33
  29.416610 1  63B             Rx   d 8 D9 31 30 FF FF FF FF FF
  29.436540 1  63B             Rx   d 8 DA FF 0E 4B 6F 6E 74 61
  29.456520 1  63B             Rx   d 8 DB 6B 74 6B 61 74 65 67
  29.476540 1  63B             Rx   d 8 DC 6F 72 01 0D 2B 34 39
  29.496520 1  63B             Rx   d 8 DD 31 37 32 31 37 39 39
  29.516580 1  63B             Rx   d 8 DE 33 31 30 FF FF FF FF
  29.536570 1  63B             Rx   d 8 DF FF FF 0E 4B 6F 6E 74
  29.543400 1  575             Rx   d 4 03 00 00 00
  29.556560 1  63B             Rx   d 8 D0 61 6B 74 6B 61 74 65
  29.576560 1  63B             Rx   d 8 D1 67 6F 72 01 0D 2B 34
  29.596520 1  63B             Rx   d 8 D2 39 31 37 32 31 37 39
  29.597260 1  63C             Rx   d 3 3B D5 01
  29.616570 1  63B             Rx   d 8 D3 39 33 31 30 FF FF FF
  29.636570 1  63B             Rx   d 8 D4 FF FF FF 0E 4B 6F 6E
  29.656520 1  63B             Rx   d 8 D5 74 61 6B 74 6B 61 74
  29.676540 1  63B             Rx   d 8 D6 65 67 6F 72 01 0D 2B
  29.686950 1  55B             Rx   d 1 01
  29.696540 1  63B             Rx   d 8 D7 34 39 31 37 32 31 37
  29.716560 1  63B             Rx   d 8 D8 39 39 33 31 30 FF FF
  29.736350 1  63B             Rx   d 5 D9 FF FF FF FF
  29.743420 1  575             Rx   d 4 03 00 00 00
  29.757140 1  6C6             Rx   d 7 80 03 1A 54 00 05 05
  29.846440 1  63B             Rx   d 8 A0 B1 4A 54 00 05 05 0E
  29.866530 1  63B             Rx   d 8 E0 4B 6F 6E 74 61 6B 74
  29.876400 1  6D2             Rx   d 6 3A 0E 04 03 04 02
  29.887480 1  63B             Rx   d 8 E1 6B 61 74 65 67 6F 72
  29.906550 1  63B             Rx   d 8 E2 01 0B 30 31 37 32 34
  29.927550 1  63B             Rx   d 8 E3 34 39 32 35 30 39 FF
  29.943410 1  575             Rx   d 4 03 00 00 00
  29.946640 1  63B             Rx   d 8 E4 FF FF FF FF FF 0F 3B
  29.966540 1  63B             Rx   d 8 E5 6D 61 74 74 68 69 61
  29.987500 1  63B             Rx   d 8 E6 73 20 57 61 73 63 68
  30.006550 1  63B             Rx   d 8 E7 01 0B 30 31 37 32 31
  30.026570 1  63B             Rx   d 8 E8 39 38 30 34 33 38 FF
  30.046620 1  63B             Rx   d 8 E9 FF FF FF FF FF 0F 3B
  30.066530 1  63B             Rx   d 8 EA 6D 61 74 74 68 69 61
  30.087470 1  63B             Rx   d 8 EB 73 20 57 61 73 63 68
  30.107560 1  63B             Rx   d 8 EC 01 0B 30 31 37 32 31
  30.126560 1  63B             Rx   d 8 ED 39 38 30 34 33 38 FF
  30.143440 1  575             Rx   d 4 03 00 00 00
  30.146680 1  63B             Rx   d 8 EE FF FF FF FF FF 0F 3B
  30.166560 1  63B             Rx   d 8 EF 4D 61 72 63 20 47 72
  30.187700 1  66F             Rx   d 8 80 08 3A D2 02 07 08 00
  30.188830 1  63B             Rx   d 8 E0 61 75 70 6D 61 6E 6E
  30.206520 1  63B             Rx   d 8 E1 01 0B 30 31 37 33 32
  30.207480 1  66F             Rx   d 5 C0 00 00 00 00
  30.226560 1  63B             Rx   d 8 E2 33 33 35 33 33 37 FF
  30.246620 1  63B             Rx   d 8 E3 FF FF FF FF FF 0F 3B
  30.266560 1  63B             Rx   d 8 E4 4D 61 72 63 20 47 72
  30.288720 1  63B             Rx   d 8 E5 61 75 70 6D 61 6E 6E
  30.306560 1  63B             Rx   d 8 E6 01 0B 30 31 37 33 32
  30.326560 1  63B             Rx   d 8 E7 33 33 35 33 33 37 FF
  30.343420 1  575             Rx   d 4 03 00 00 00
  30.346480 1  63B             Rx   d 6 E8 FF FF FF FF FF
  30.367480 1  6C6             Rx   d 7 90 03 1A 53 00 0A 05
  30.442430 1  67C             Rx   d 7 80 03 1C 56 00 2F 06
  30.446600 1  63B             Rx   d 8 90 99 4A 53 00 0A 05 0E
  30.467570 1  63B             Rx   d 8 D0 4B 6F 6E 74 61 6B 74
  30.487460 1  63B             Rx   d 8 D1 6B 61 74 65 67 6F 72
  30.506560 1  63B             Rx   d 8 D2 01 0D 2B 34 39 31 37
  30.526550 1  63B             Rx   d 8 D3 32 31 37 39 39 33 31
  30.543430 1  575             Rx   d 4 03 00 00 00
  30.546660 1  63B             Rx   d 8 D4 30 FF FF FF FF FF FF
  30.566560 1  63B             Rx   d 8 D5 0E 4B 6F 6E 74 61 6B
  30.587600 1  63B             Rx   d 8 D6 74 6B 61 74 65 67 6F
  30.597630 1  63C             Rx   d 3 3B D6 FF
  30.606570 1  63B             Rx   d 8 D7 72 01 0D 2B 34 39 31
  30.626560 1  63B             Rx   d 8 D8 37 32 31 37 39 39 33
  30.647640 1  63B             Rx   d 8 D9 31 30 FF FF FF FF FF
  30.666570 1  63B             Rx   d 8 DA FF 0E 4B 6F 6E 74 61
  30.686920 1  55B             Rx   d 1 01
  30.688040 1  63B             Rx   d 8 DB 6B 74 6B 61 74 65 67
  30.706560 1  63B             Rx   d 8 DC 6F 72 01 0D 2B 34 39
  30.726560 1  63B             Rx   d 8 DD 31 37 32 31 37 39 39
  30.743430 1  575             Rx   d 4 03 00 00 00
  30.746640 1  63B             Rx   d 8 DE 33 31 30 FF FF FF FF
  30.751780 1  67C             Rx   d 7 80 03 1C 56 30 2F 02
  30.766610 1  63B             Rx   d 8 DF FF FF 06 39 39 30 39
  30.787510 1  63B             Rx   d 8 D0 34 36 01 06 39 39 30
  30.806620 1  63B             Rx   d 8 D1 39 34 36 FF FF FF FF
  30.827600 1  63B             Rx   d 8 D2 FF FF 06 39 39 30 39
  30.846600 1  63B             Rx   d 8 D3 34 36 01 06 39 39 30
  30.866640 1  63B             Rx   d 8 D4 39 34 36 FF FF FF FF
  30.876180 1  6D2             Rx   d 3 3A 0F 09
  30.887070 1  63B             Rx   d 3 D5 FF FF
  30.908760 1  6C6             Rx   d 7 80 03 1A 54 00 0A 05
  30.943430 1  575             Rx   d 4 03 00 00 00
  30.996480 1  63B             Rx   d 8 A0 B4 4A 54 00 0A 05 0F
  31.016590 1  63B             Rx   d 8 E0 3B 4D 61 72 63 20 47
  31.036590 1  63B             Rx   d 8 E1 72 61 75 70 6D 61 6E
  31.056590 1  63B             Rx   d 8 E2 6E 01 0B 30 31 37 33
  31.076600 1  63B             Rx   d 8 E3 32 33 33 35 33 33 37
  31.096670 1  63B             Rx   d 8 E4 FF FF FF FF FF FF 0E
  31.116590 1  63B             Rx   d 8 E5 4B 6F 6E 74 61 6B 74
  31.136580 1  63B             Rx   d 8 E6 6B 61 74 65 67 6F 72
  31.143470 1  575             Rx   d 4 03 00 00 00
  31.156620 1  63B             Rx   d 8 E7 01 0B 30 31 37 32 34
  31.176610 1  63B             Rx   d 8 E8 34 39 32 35 30 39 FF
  31.188680 1  66F             Rx   d 8 3A D3 07 00 07 07 01 01
  31.196640 1  63B             Rx   d 8 E9 FF FF FF FF FF 0E 4B
  31.206080 1  66F             Rx   d 3 4A D7 01
  31.216540 1  63B             Rx   d 8 EA 6F 6E 74 61 6B 74 6B
  31.230730 1  67C             Rx   d 3 0A D7 01
  31.236670 1  63B             Rx   d 8 EB 61 74 65 67 6F 72 01
  31.246550 1  66F             Rx   d 8 80 3B 4A D4 02 00 00 47
  31.256560 1  63B             Rx   d 8 EC 0D 2B 34 39 31 37 32
  31.266550 1  66F             Rx   d 8 C0 00 04 00 00 80 04 4D
  31.276570 1  63B             Rx   d 8 ED 31 37 39 39 33 31 30
  31.287440 1  66F             Rx   d 8 C1 45 4E 55 01 04 83 0A
  31.296650 1  63B             Rx   d 8 EE FF FF FF FF FF FF 0E
  31.306480 1  66F             Rx   d 8 C2 50 68 6F 6E 65 20 62
  31.316560 1  63B             Rx   d 8 EF 4B 6F 6E 74 61 6B 74
  31.326490 1  66F             Rx   d 8 C3 6F 6F 6B 02 04 81 0B
  31.336560 1  63B             Rx   d 8 E0 6B 61 74 65 67 6F 72
  31.343440 1  575             Rx   d 4 03 00 00 00
  31.346520 1  66F             Rx   d 8 C4 44 69 61 6C 20 6E 75
  31.356570 1  63B             Rx   d 8 E1 01 0D 2B 34 39 31 37
  31.367610 1  66F             Rx   d 8 C5 6D 62 65 72 03 04 81
  31.376560 1  63B             Rx   d 8 E2 32 31 37 39 39 33 31
  31.387580 1  66F             Rx   d 8 C6 0C 43 61 6C 6C 20 68
  31.396650 1  63B             Rx   d 8 E3 30 FF FF FF FF FF FF
  31.406400 1  66F             Rx   d 7 C7 69 73 74 6F 72 79
  31.416580 1  63B             Rx   d 8 E4 0E 4B 6F 6E 74 61 6B
  31.426350 1  66F             Rx   d 6 4A D6 02 01 21 00
  31.429960 1  67C             Rx   d 3 0A D5 02
  31.436600 1  63B             Rx   d 8 E5 74 6B 61 74 65 67 6F
  31.446550 1  66F             Rx   d 8 4A D3 07 00 07 07 FF 00
  31.456570 1  63B             Rx   d 8 E6 72 01 0D 2B 34 39 31
  31.476600 1  63B             Rx   d 8 E7 37 32 31 37 39 39 33
  31.481050 1  67C             Rx   d 8 2A D3 07 00 07 00 00 FF
  31.496600 1  66F             Rx   d 8 4A D3 07 00 00 00 00 00
  31.499000 1  63B             Rx   d 8 E8 31 30 FF FF FF FF FF
  31.516120 1  63B             Rx   d 2 E9 FF
  31.517300 1  66F             Rx   d 8 4A D3 02 00 00 00 FF 01
  31.530130 1  67C             Rx   d 8 2A D3 02 00 00 07 01 FF
  31.538230 1  6C6             Rx   d 7 90 03 1A 53 00 0F 05
  31.543450 1  575             Rx   d 4 03 00 00 00
  31.547660 1  66F             Rx   d 8 4A D3 02 00 02 07 01 01
  31.566640 1  63B             Rx   d 8 90 18 4A 53 00 0F 01 06
  31.587440 1  63B             Rx   d 8 D0 39 39 30 39 34 36 01
  31.597280 1  63C             Rx   d 6 3B D7 FF FF FF FF
  31.606630 1  63B             Rx   d 8 D1 06 39 39 30 39 34 36
  31.626610 1  63B             Rx   d 7 D2 FF FF FF FF FF FF
  31.647970 1  6C6             Rx   d 7 80 03 1A 54 00 0F 05
  31.686850 1  55B             Rx   d 1 01
  31.727640 1  63B             Rx   d 8 A0 AE 4A 54 00 0F 05 0F
  31.743450 1  575             Rx   d 4 03 00 00 00
  31.746620 1  63B             Rx   d 8 E0 3B 6D 61 74 74 68 69
  31.766600 1  63B             Rx   d 8 E1 61 73 20 57 61 73 63
  31.787590 1  63B             Rx   d 8 E2 68 01 0D 2B 34 39 31
  31.806620 1  63B             Rx   d 8 E3 37 32 31 39 38 30 34
  31.826670 1  63B             Rx   d 8 E4 33 38 FF FF FF FF FF
  31.846630 1  63B             Rx   d 8 E5 FF 0B 30 35 33 36 31
  31.866620 1  63B             Rx   d 8 E6 39 34 39 36 33 39 01
  31.876630 1  6D2             Rx   d 8 90 08 3A 10 1E C0 DF FE
  31.887380 1  63B             Rx   d 8 E7 0B 30 35 33 36 31 39
  31.907380 1  6D2             Rx   d 5 D0 D5 09 01 00
  31.908560 1  63B             Rx   d 8 E8 34 39 36 33 39 FF FF
  31.926570 1  63B             Rx   d 8 E9 FF FF FF FF 0B 30 35
  31.943450 1  575             Rx   d 4 03 00 00 00
  31.946610 1  63B             Rx   d 8 EA 33 36 31 39 34 39 36
  31.966610 1  63B             Rx   d 8 EB 33 39 01 0B 30 35 33
  31.987370 1  63B             Rx   d 8 EC 36 31 39 34 39 36 33
  32.006690 1  63B             Rx   d 8 ED 39 FF FF FF FF FF FF
  32.026620 1  63B             Rx   d 8 EE 0E 4B 6F 6E 74 61 6B
  32.046630 1  63B             Rx   d 8 EF 74 6B 61 74 65 67 6F
  32.066620 1  63B             Rx   d 8 E0 72 01 0D 2B 34 39 31
  32.088570 1  63B             Rx   d 8 E1 37 32 31 37 39 39 33
  32.106690 1  63B             Rx   d 8 E2 31 30 FF FF FF FF FF
  32.126640 1  63B             Rx   d 8 E3 FF 0E 4B 6F 6E 74 61
  32.143480 1  575             Rx   d 4 03 00 00 00
  32.147350 1  63B             Rx   d 8 E4 6B 74 6B 61 74 65 67
  32.166610 1  63B             Rx   d 8 E5 6F 72 01 0D 2B 34 39
  32.187540 1  63B             Rx   d 8 E6 31 37 32 31 37 39 39
  32.206660 1  63B             Rx   d 8 E7 33 31 30 FF FF FF FF
  32.226250 1  63B             Rx   d 3 E8 FF FF
  32.343470 1  575             Rx   d 4 03 00 00 00
  32.536140 1  66F             Rx   d 3 3A D5 00
  32.543470 1  575             Rx   d 4 03 00 00 00
  32.597250 1  63C             Rx   d 6 3B D8 FF FF FF FF
  32.686840 1  55B             Rx   d 1 01
  32.716200 1  63B             Rx   d 3 3A 4E 02
  32.743470 1  575             Rx   d 4 03 00 00 00
  32.876640 1  6D2             Rx   d 8 80 2C 3A 12 02 6E 61 0C
  32.906680 1  6D2             Rx   d 8 C0 30 30 32 33 36 43 45
  32.936680 1  6D2             Rx   d 8 C1 37 33 32 30 31 1B 41
  32.943470 1  575             Rx   d 4 03 00 00 00
  32.956660 1  66F             Rx   d 8 80 3B 4A D4 02 00 00 47
  32.966570 1  6D2             Rx   d 8 C2 70 70 6C 65 E2 80 99
  32.976680 1  66F             Rx   d 8 C0 00 04 00 00 80 0A 50
  32.996380 1  66F             Rx   d 6 4A D6 02 01 01 00
  32.997520 1  6D2             Rx   d 8 C3 73 20 69 50 68 6F 6E
  33.016680 1  66F             Rx   d 8 C1 68 6F 6E 65 20 62 6F
  33.026570 1  6D2             Rx   d 8 C4 65 20 33 47 20 69 4F
  33.036640 1  66F             Rx   d 8 C2 6F 6B 01 04 83 01 2D
  33.056410 1  6D2             Rx   d 6 C5 53 20 34 2E 31
  33.057580 1  66F             Rx   d 8 C3 02 04 81 0C 2C 20 43
  33.076610 1  66F             Rx   d 8 C4 2C 20 C4 8C 2C 20 44
  33.096680 1  66F             Rx   d 8 C5 20 42 03 04 81 0E 2C
  33.116680 1  66F             Rx   d 8 C6 20 4A 2C 20 4B 2C 20
  33.136600 1  66F             Rx   d 7 C7 4C 2C 20 4D 20 49
  33.143490 1  575             Rx   d 4 03 00 00 00
  33.151120 1  67C             Rx   d 3 0A D5 02
  33.343480 1  575             Rx   d 4 03 00 00 00
  33.544340 1  575             Rx   d 4 03 00 00 00
  33.596990 1  63C             Rx   d 3 3B DB FF
  33.616740 1  66F             Rx   d 8 80 0E 4A D4 02 00 00 44
  33.636750 1  66F             Rx   d 8 C0 00 04 00 80 01 81 02
  33.656390 1  66F             Rx   d 4 C1 83 03 81
  33.669690 1  67C             Rx   d 3 0A D5 02
  33.686900 1  55B             Rx   d 1 01
  33.716260 1  63B             Rx   d 3 3A 4F 00
  33.743490 1  575             Rx   d 4 03 00 00 00
  33.856640 1  66F             Rx   d 8 80 0E 4A D4 02 00 00 44
  33.876210 1  6D2             Rx   d 3 3A 13 01
  33.877410 1  66F             Rx   d 8 C0 00 04 00 80 01 81 02
  33.896330 1  66F             Rx   d 4 C1 81 03 83
  33.909910 1  67C             Rx   d 3 0A D5 02
  33.943520 1  575             Rx   d 4 03 00 00 00
  34.036430 1  66F             Rx   d 6 4A D6 02 01 01 01
  34.056730 1  66F             Rx   d 8 80 45 4A D4 02 00 00 47
  34.076760 1  66F             Rx   d 8 C0 00 04 00 00 80 0A 50
  34.096710 1  66F             Rx   d 8 C1 68 6F 6E 65 20 62 6F
  34.116710 1  66F             Rx   d 8 C2 6F 6B 01 04 81 0C 2C
  34.136700 1  66F             Rx   d 8 C3 20 43 2C 20 C4 8C 2C
  34.144370 1  575             Rx   d 4 03 00 00 00
  34.157810 1  66F             Rx   d 8 C4 20 44 20 42 02 04 81
  34.176730 1  66F             Rx   d 8 C5 0E 2C 20 4A 2C 20 4B
  34.196720 1  66F             Rx   d 8 C6 2C 20 4C 2C 20 4D 20
  34.216740 1  66F             Rx   d 8 C7 49 03 04 83 0B 2C 20
  34.236720 1  66F             Rx   d 8 C8 53 2C 20 C5 A0 2C 20
  34.256310 1  66F             Rx   d 3 C9 C5 98
  34.270710 1  67C             Rx   d 3 0A D5 02
  34.287160 1  66F             Rx   d 6 4A D6 02 01 01 02
  34.306720 1  66F             Rx   d 8 80 43 4A D4 02 00 00 47
  34.326760 1  66F             Rx   d 8 C0 00 04 00 00 80 0A 50
  34.343520 1  575             Rx   d 4 03 00 00 00
  34.346730 1  66F             Rx   d 8 C1 68 6F 6E 65 20 62 6F
  34.366720 1  66F             Rx   d 8 C2 6F 6B 01 04 81 0E 2C
  34.387320 1  66F             Rx   d 8 C3 20 4A 2C 20 4B 2C 20
  34.406720 1  66F             Rx   d 8 C4 4C 2C 20 4D 20 49 02
  34.427710 1  66F             Rx   d 8 C5 04 81 0B 2C 20 53 2C
  34.446730 1  66F             Rx   d 8 C6 20 C5 A0 2C 20 C5 98
  34.466720 1  66F             Rx   d 8 C7 03 04 83 0A 2C 20 59
  34.487350 1  66F             Rx   d 8 C8 2C 20 5A 20 2C 20 58
  34.509530 1  67C             Rx   d 3 0A D5 02
  34.526440 1  66F             Rx   d 6 4A D6 02 01 01 03
  34.543530 1  575             Rx   d 4 03 00 00 00
  34.546780 1  66F             Rx   d 8 80 42 4A D4 02 00 00 47
  34.566760 1  66F             Rx   d 8 C0 00 04 00 00 80 0A 50
  34.587450 1  66F             Rx   d 8 C1 68 6F 6E 65 20 62 6F
  34.596980 1  63C             Rx   d 3 3B DC FF
  34.607730 1  66F             Rx   d 8 C2 6F 6B 01 04 81 0B 2C
  34.626730 1  66F             Rx   d 8 C3 20 53 2C 20 C5 A0 2C
  34.646760 1  66F             Rx   d 8 C4 20 C5 98 02 04 81 0A
  34.666720 1  66F             Rx   d 8 C5 2C 20 59 2C 20 5A 20
  34.686750 1  55B             Rx   d 1 01
  34.687890 1  66F             Rx   d 8 C6 2C 20 58 03 04 83 0D
  34.706700 1  66F             Rx   d 8 C7 3B 41 68 6D 61 64 20
  34.716590 1  63B             Rx   d 6 3A 51 00 00 00 00
  34.726530 1  66F             Rx   d 7 C8 53 68 6D 65 73 69
  34.743520 1  575             Rx   d 4 03 00 00 00
  34.751140 1  67C             Rx   d 3 0A D5 02
  34.766440 1  66F             Rx   d 6 4A D6 02 01 01 04
  34.788530 1  66F             Rx   d 8 80 46 4A D4 02 00 00 47
  34.806910 1  66F             Rx   d 8 C0 00 04 00 00 80 0A 50
  34.826730 1  66F             Rx   d 8 C1 68 6F 6E 65 20 62 6F
  34.846730 1  66F             Rx   d 8 C2 6F 6B 01 04 81 0A 2C
  34.866720 1  66F             Rx   d 8 C3 20 59 2C 20 5A 20 2C
  34.876260 1  6D2             Rx   d 3 3A 14 00
  34.887200 1  66F             Rx   d 8 C4 20 58 02 04 81 0D 3B
  34.906720 1  66F             Rx   d 8 C5 41 68 6D 61 64 20 53
  34.926720 1  66F             Rx   d 8 C6 68 6D 65 73 69 03 04
  34.943530 1  575             Rx   d 4 03 00 00 00
  34.946740 1  66F             Rx   d 8 C7 83 0F 3B 41 6C 65 78
  34.967720 1  66F             Rx   d 8 C8 61 6E 64 65 72 20 5A
  34.987080 1  66F             Rx   d 4 C9 69 74 7A
  35.009580 1  67C             Rx   d 3 0A D5 02
  35.026450 1  66F             Rx   d 6 4A D6 02 01 01 05
  35.046790 1  66F             Rx   d 8 80 45 4A D4 02 00 00 47
  35.066790 1  66F             Rx   d 8 C0 00 04 00 00 80 0A 50
  35.087280 1  66F             Rx   d 8 C1 68 6F 6E 65 20 62 6F
  35.106720 1  66F             Rx   d 8 C2 6F 6B 01 04 81 0D 3B
  35.126720 1  66F             Rx   d 8 C3 41 68 6D 61 64 20 53
  35.143560 1  575             Rx   d 4 03 00 00 00
  35.148680 1  66F             Rx   d 8 C4 68 6D 65 73 69 02 04
  35.166840 1  66F             Rx   d 8 C5 81 0F 3B 41 6C 65 78
  35.187170 1  66F             Rx   d 8 C6 61 6E 64 65 72 20 5A
  35.206750 1  66F             Rx   d 8 C7 69 74 7A 03 04 83 09
  35.226750 1  66F             Rx   d 8 C8 3B 61 6C 69 20 55 73
  35.246340 1  66F             Rx   d 3 C9 65 72
  35.269750 1  67C             Rx   d 3 0A D5 02
  35.287120 1  66F             Rx   d 6 4A D6 02 01 01 06
  35.306790 1  66F             Rx   d 8 80 46 4A D4 02 00 00 47
  35.327800 1  66F             Rx   d 8 C0 00 04 00 00 80 0A 50
  35.344400 1  575             Rx   d 4 03 00 00 00
  35.346880 1  66F             Rx   d 8 C1 68 6F 6E 65 20 62 6F
  35.366760 1  66F             Rx   d 8 C2 6F 6B 01 04 81 0F 3B
  35.387430 1  66F             Rx   d 8 C3 41 6C 65 78 61 6E 64
  35.406730 1  66F             Rx   d 8 C4 65 72 20 5A 69 74 7A
  35.426740 1  66F             Rx   d 8 C5 02 04 81 09 3B 61 6C
  35.446780 1  66F             Rx   d 8 C6 69 20 55 73 65 72 03
  35.466750 1  66F             Rx   d 8 C7 04 83 0E 3B 41 6E 64
  35.487170 1  66F             Rx   d 8 C8 72 65 61 73 20 47 65
  35.507400 1  66F             Rx   d 4 C9 68 6C 65
  35.530020 1  67C             Rx   d 3 0A D5 02
  35.543540 1  575             Rx   d 4 03 00 00 00
  35.546480 1  66F             Rx   d 6 4A D6 02 01 01 07
  35.566790 1  66F             Rx   d 8 80 46 4A D4 02 00 00 47
  35.587230 1  66F             Rx   d 8 C0 00 04 00 00 80 0A 50
  35.596970 1  63C             Rx   d 3 3B DD FF
  35.606760 1  66F             Rx   d 8 C1 68 6F 6E 65 20 62 6F
  35.626760 1  66F             Rx   d 8 C2 6F 6B 01 04 81 09 3B
  35.646760 1  66F             Rx   d 8 C3 61 6C 69 20 55 73 65
  35.666770 1  66F             Rx   d 8 C4 72 02 04 81 0E 3B 41
  35.687900 1  55B             Rx   d 1 01
  35.689030 1  66F             Rx   d 8 C5 6E 64 72 65 61 73 20
  35.706730 1  66F             Rx   d 8 C6 47 65 68 6C 65 03 04
  35.716490 1  63B             Rx   d 5 3A 56 02 6F 00
  35.726630 1  66F             Rx   d 8 C7 83 0F 3B 41 6E 64 72
  35.743560 1  575             Rx   d 4 03 00 00 00
  35.746770 1  66F             Rx   d 8 C8 65 61 73 21 20 42 65
  35.766400 1  66F             Rx   d 4 C9 73 6C 65
  35.791160 1  67C             Rx   d 3 0A D5 02
  35.806460 1  66F             Rx   d 6 4A D6 02 01 01 08
  35.826790 1  66F             Rx   d 8 80 4C 4A D4 02 00 00 47
  35.846840 1  66F             Rx   d 8 C0 00 04 00 00 80 0A 50
  35.867760 1  66F             Rx   d 8 C1 68 6F 6E 65 20 62 6F
  35.876290 1  6D2             Rx   d 3 3A 17 63
  35.886710 1  66F             Rx   d 8 C2 6F 6B 01 04 81 0E 3B
  35.906740 1  66F             Rx   d 8 C3 41 6E 64 72 65 61 73
  35.926740 1  66F             Rx   d 8 C4 20 47 65 68 6C 65 02
  35.944400 1  575             Rx   d 4 03 00 00 00
  35.946790 1  66F             Rx   d 8 C5 04 81 0F 3B 41 6E 64
  35.966730 1  66F             Rx   d 8 C6 72 65 61 73 21 20 42
  35.987610 1  66F             Rx   d 8 C7 65 73 6C 65 03 04 83
  36.006760 1  66F             Rx   d 8 C8 0F 3B 41 72 6E 65 20
  36.026750 1  66F             Rx   d 8 C9 4B 61 68 72 73 74 65
  36.047360 1  66F             Rx   d 3 CA 64 74
  36.071950 1  67C             Rx   d 3 0A D5 02
  36.086990 1  66F             Rx   d 6 4A D6 02 01 01 09
  36.106800 1  66F             Rx   d 8 80 4D 4A D4 02 00 00 47
  36.126830 1  66F             Rx   d 8 C0 00 04 00 00 80 0A 50
  36.143580 1  575             Rx   d 4 03 00 00 00
  36.147480 1  66F             Rx   d 8 C1 68 6F 6E 65 20 62 6F
  36.166800 1  66F             Rx   d 8 C2 6F 6B 01 04 81 0F 3B
  36.187390 1  66F             Rx   d 8 C3 41 6E 64 72 65 61 73
  36.206210 1  66F             Rx   d 3 4A D7 01
  36.227760 1  66F             Rx   d 8 C4 21 20 42 65 73 6C 65
  36.229990 1  67C             Rx   d 3 0A D7 01
  36.246800 1  66F             Rx   d 8 C5 02 04 81 0F 3B 41 72
  36.266750 1  66F             Rx   d 8 C6 6E 65 20 4B 61 68 72
  36.287250 1  66F             Rx   d 8 C7 73 74 65 64 74 03 04
  36.306760 1  66F             Rx   d 8 C8 83 0F 3B 42 65 6E 20
  36.326740 1  66F             Rx   d 8 C9 52 65 63 6B 74 65 6E
  36.343560 1  575             Rx   d 4 03 00 00 00
  36.346470 1  66F             Rx   d 4 CA 77 61 6C
  36.370750 1  67C             Rx   d 3 0A D5 02
  36.387140 1  66F             Rx   d 6 4A D6 02 01 01 09
  36.407800 1  66F             Rx   d 8 80 4C 4A D4 02 00 00 47
  36.426840 1  66F             Rx   d 8 C0 00 04 00 00 80 0A 50
  36.446800 1  66F             Rx   d 8 C1 68 6F 6E 65 20 62 6F
  36.466810 1  66F             Rx   d 8 C2 6F 6B 01 04 81 0F 3B
  36.487240 1  66F             Rx   d 8 C3 41 72 6E 65 20 4B 61
  36.506750 1  66F             Rx   d 8 C4 68 72 73 74 65 64 74
  36.526770 1  66F             Rx   d 8 C5 02 04 81 0F 3B 42 65
  36.543560 1  575             Rx   d 4 03 00 00 00
  36.546800 1  66F             Rx   d 8 C6 6E 20 52 65 63 6B 74
  36.566770 1  66F             Rx   d 8 C7 65 6E 77 61 6C 03 04
  36.588560 1  66F             Rx   d 8 C8 83 0E 3B 42 6F 72 64
  36.596990 1  63C             Rx   d 3 3B E5 01
  36.606760 1  66F             Rx   d 8 C9 69 6E 20 41 6E 64 72
  36.626380 1  66F             Rx   d 3 CA 65 61
  36.649860 1  67C             Rx   d 3 0A D5 02
  36.666490 1  66F             Rx   d 6 4A D6 02 01 01 0A
  36.686700 1  55B             Rx   d 1 01
  36.687860 1  66F             Rx   d 8 80 4B 4A D4 02 00 00 47
  36.706840 1  66F             Rx   d 8 C0 00 04 00 00 80 0A 50
  36.717680 1  63B             Rx   d 5 80 01 3A 59 00
  36.726690 1  66F             Rx   d 8 C1 68 6F 6E 65 20 62 6F
  36.743560 1  575             Rx   d 4 03 00 00 00
  36.746830 1  66F             Rx   d 8 C2 6F 6B 01 04 81 0F 3B
  36.767780 1  66F             Rx   d 8 C3 42 65 6E 20 52 65 63
  36.787280 1  66F             Rx   d 8 C4 6B 74 65 6E 77 61 6C
  36.806810 1  66F             Rx   d 8 C5 02 04 81 0E 3B 42 6F
  36.826780 1  66F             Rx   d 8 C6 72 64 69 6E 20 41 6E
  36.846810 1  66F             Rx   d 8 C7 64 72 65 61 03 04 83
  36.866780 1  66F             Rx   d 8 C8 0E 3B 42 6F 75 72 67
  36.876330 1  6D2             Rx   d 3 3A 19 00
  36.887140 1  66F             Rx   d 8 C9 65 74 74 20 41 6C 65
  36.906300 1  66F             Rx   d 2 CA 78
  36.929880 1  67C             Rx   d 3 0A D5 02
  36.943560 1  575             Rx   d 4 03 00 00 00
  36.947640 1  66F             Rx   d 6 4A D6 02 01 01 0B
  36.966820 1  66F             Rx   d 8 80 4B 4A D4 02 00 00 47
  36.987440 1  66F             Rx   d 8 C0 00 04 00 00 80 0A 50
  37.006800 1  66F             Rx   d 8 C1 68 6F 6E 65 20 62 6F
  37.026800 1  66F             Rx   d 8 C2 6F 6B 01 04 81 0E 3B
  37.046800 1  66F             Rx   d 8 C3 42 6F 72 64 69 6E 20
  37.066800 1  66F             Rx   d 8 C4 41 6E 64 72 65 61 02
  37.087260 1  66F             Rx   d 8 C5 04 81 0E 3B 42 6F 75
  37.106780 1  66F             Rx   d 8 C6 72 67 65 74 74 20 41
  37.127810 1  66F             Rx   d 8 C7 6C 65 78 03 04 83 0F
  37.144430 1  575             Rx   d 4 03 00 00 00
  37.148310 1  66F             Rx   d 8 C8 3B 43 68 72 69 73 74
  37.166770 1  66F             Rx   d 8 C9 69 61 20 48 61 6D 61
  37.186760 1  66F             Rx   d 2 CA 63
  37.209890 1  67C             Rx   d 3 0A D5 02
  37.226510 1  66F             Rx   d 6 4A D6 02 01 01 0C
  37.246850 1  66F             Rx   d 8 80 4C 4A D4 02 00 00 47
  37.266860 1  66F             Rx   d 8 C0 00 04 00 00 80 0A 50
  37.287240 1  66F             Rx   d 8 C1 68 6F 6E 65 20 62 6F
  37.307800 1  66F             Rx   d 8 C2 6F 6B 01 04 81 0E 3B
  37.326900 1  66F             Rx   d 8 C3 42 6F 75 72 67 65 74
  37.344060 1  575             Rx   d 4 03 00 00 00
  37.346840 1  66F             Rx   d 8 C4 74 20 41 6C 65 78 02
  37.366810 1  66F             Rx   d 8 C5 04 81 0F 3B 43 68 72
  37.387320 1  66F             Rx   d 8 C6 69 73 74 69 61 20 48
  37.406800 1  66F             Rx   d 8 C7 61 6D 61 63 03 04 83
  37.426790 1  66F             Rx   d 8 C8 0F 3B 43 68 72 69 73
  37.446810 1  66F             Rx   d 8 C9 74 69 61 6E 20 54 69
  37.466400 1  66F             Rx   d 3 CA 65 74
  37.491210 1  67C             Rx   d 3 0A D5 02
  37.506630 1  66F             Rx   d 6 4A D6 02 01 01 0D
  37.526850 1  66F             Rx   d 8 80 4D 4A D4 02 00 00 47
  37.543580 1  575             Rx   d 4 03 00 00 00
  37.546900 1  66F             Rx   d 8 C0 00 04 00 00 80 0A 50
  37.566840 1  66F             Rx   d 8 C1 68 6F 6E 65 20 62 6F
  37.587320 1  66F             Rx   d 8 C2 6F 6B 01 04 81 0F 3B
  37.596980 1  63C             Rx   d 3 3B E6 00
  37.606790 1  66F             Rx   d 8 C3 43 68 72 69 73 74 69
  37.626800 1  66F             Rx   d 8 C4 61 20 48 61 6D 61 63
  37.646840 1  66F             Rx   d 8 C5 02 04 81 0F 3B 43 68
  37.667790 1  66F             Rx   d 8 C6 72 69 73 74 69 61 6E
  37.686660 1  55B             Rx   d 1 01
  37.687800 1  66F             Rx   d 8 C7 20 54 69 65 74 03 04
  37.706800 1  66F             Rx   d 8 C8 83 0F 3B 43 68 72 69
  37.716690 1  63B             Rx   d 6 3A 5B 00 00 00 00
  37.726680 1  66F             Rx   d 8 C9 73 74 69 61 6E 20 57
  37.744430 1  575             Rx   d 4 03 00 00 00
  37.746500 1  66F             Rx   d 4 CA 61 67 6E
  37.771970 1  67C             Rx   d 3 0A D5 02
  37.787240 1  66F             Rx   d 6 4A D6 02 01 01 0E
  37.806860 1  66F             Rx   d 8 80 4D 4A D4 02 00 00 47
  37.826880 1  66F             Rx   d 8 C0 00 04 00 00 80 0A 50
  37.847830 1  66F             Rx   d 8 C1 68 6F 6E 65 20 62 6F
  37.866960 1  66F             Rx   d 8 C2 6F 6B 01 04 81 0F 3B
  37.876850 1  6D2             Rx   d 8 80 08 3A 1A 00 00 00 00
  37.887210 1  66F             Rx   d 8 C3 43 68 72 69 73 74 69
  37.906560 1  6D2             Rx   d 5 C0 00 00 00 00
  37.907700 1  66F             Rx   d 8 C4 61 6E 20 54 69 65 74
  37.926780 1  66F             Rx   d 8 C5 02 04 81 0F 3B 43 68
  37.943580 1  575             Rx   d 4 03 00 00 00
  37.946830 1  66F             Rx   d 8 C6 72 69 73 74 69 61 6E
  37.966830 1  66F             Rx   d 8 C7 20 57 61 67 6E 03 04
  37.987240 1  66F             Rx   d 8 C8 83 0F 3B 43 68 72 69
  38.006810 1  66F             Rx   d 8 C9 73 74 69 61 6E 20 57
  38.027490 1  66F             Rx   d 4 CA 65 6E 74
  38.051210 1  67C             Rx   d 3 0A D5 02
  38.066540 1  66F             Rx   d 6 4A D6 02 01 01 0F
  38.087270 1  66F             Rx   d 8 80 4B 4A D4 02 00 00 47
  38.106920 1  66F             Rx   d 8 C0 00 04 00 00 80 0A 50
  38.126840 1  66F             Rx   d 8 C1 68 6F 6E 65 20 62 6F
  38.143600 1  575             Rx   d 4 03 00 00 00
  38.147520 1  66F             Rx   d 8 C2 6F 6B 01 04 81 0F 3B
  38.166810 1  66F             Rx   d 8 C3 43 68 72 69 73 74 69
  38.187360 1  66F             Rx   d 8 C4 61 6E 20 57 61 67 6E
  38.207840 1  66F             Rx   d 8 C5 02 04 81 0F 3B 43 68
  38.226800 1  66F             Rx   d 8 C6 72 69 73 74 69 61 6E
  38.246850 1  66F             Rx   d 8 C7 20 57 65 6E 74 03 04
  38.266810 1  66F             Rx   d 8 C8 83 0D 3B 43 6C 61 75
  38.287210 1  66F             Rx   d 8 C9 73 21 20 55 6E 72 75
  38.306350 1  66F             Rx   d 2 CA 68
  38.329940 1  67C             Rx   d 3 0A D5 02
  38.344560 1  575             Rx   d 4 03 00 00 00
  38.346600 1  66F             Rx   d 6 4A D6 02 01 01 10
  38.366880 1  66F             Rx   d 8 80 48 4A D4 02 00 00 47
  38.389110 1  66F             Rx   d 8 C0 00 04 00 00 80 0A 50
  38.406850 1  66F             Rx   d 8 C1 68 6F 6E 65 20 62 6F
  38.426860 1  66F             Rx   d 8 C2 6F 6B 01 04 81 0F 3B
  38.446830 1  66F             Rx   d 8 C3 43 68 72 69 73 74 69
  38.466850 1  66F             Rx   d 8 C4 61 6E 20 57 65 6E 74
  38.487200 1  66F             Rx   d 8 C5 02 04 81 0D 3B 43 6C
  38.506830 1  66F             Rx   d 8 C6 61 75 73 21 20 55 6E
  38.526850 1  66F             Rx   d 8 C7 72 75 68 03 04 83 0C
  38.543590 1  575             Rx   d 4 03 00 00 00
  38.546880 1  66F             Rx   d 8 C8 3B 44 61 6E 69 65 6C
  38.567680 1  66F             Rx   d 6 C9 20 44 61 6E 7A
  38.591210 1  67C             Rx   d 3 0A D5 02
  38.597280 1  63C             Rx   d 6 3B E7 FF FF FF FF
  38.606560 1  66F             Rx   d 6 4A D6 02 01 01 11
  38.626900 1  66F             Rx   d 8 80 46 4A D4 02 00 00 47
  38.646930 1  66F             Rx   d 8 C0 00 04 00 00 80 0A 50
  38.666870 1  66F             Rx   d 8 C1 68 6F 6E 65 20 62 6F
  38.686680 1  55B             Rx   d 1 01
  38.687830 1  66F             Rx   d 8 C2 6F 6B 01 04 81 0D 3B
  38.706860 1  66F             Rx   d 8 C3 43 6C 61 75 73 21 20
  38.716860 1  63B             Rx   d 8 3A 42 03 00 29 00 03 00
  38.726760 1  66F             Rx   d 8 C4 55 6E 72 75 68 02 04
  38.743600 1  575             Rx   d 4 03 00 00 00
  38.747840 1  66F             Rx   d 8 C5 81 0C 3B 44 61 6E 69
  38.766900 1  66F             Rx   d 8 C6 65 6C 20 44 61 6E 7A
  38.787250 1  66F             Rx   d 8 C7 03 04 83 0D 3B 44 65
  38.806850 1  66F             Rx   d 8 C8 6D 75 74 68 20 44 65
  38.826620 1  66F             Rx   d 4 C9 6E 69 7A
  38.849840 1  67C             Rx   d 3 0A D5 02
  38.866560 1  66F             Rx   d 6 4A D6 02 01 01 12
  38.877510 1  6D2             Rx   d 3 3A 21 01
  38.887190 1  66F             Rx   d 8 80 44 4A D4 02 00 00 47
  38.906920 1  66F             Rx   d 8 C0 00 04 00 00 80 0A 50
  38.927870 1  66F             Rx   d 8 C1 68 6F 6E 65 20 62 6F
  38.943600 1  575             Rx   d 4 03 00 00 00
  38.946890 1  66F             Rx   d 8 C2 6F 6B 01 04 81 0C 3B
  38.967400 1  66F             Rx   d 8 C3 44 61 6E 69 65 6C 20
  38.987350 1  66F             Rx   d 8 C4 44 61 6E 7A 02 04 81
  39.006830 1  66F             Rx   d 8 C5 0D 3B 44 65 6D 75 74
  39.026860 1  66F             Rx   d 8 C6 68 20 44 65 6E 69 7A
  39.046880 1  66F             Rx   d 8 C7 03 04 83 0B 3B 44 65
  39.066860 1  66F             Rx   d 8 C8 6E 69 7A 65 20 62 69
  39.086770 1  66F             Rx   d 2 C9 6B
  39.109780 1  67C             Rx   d 3 0A D5 02
  39.126570 1  66F             Rx   d 6 4A D6 02 01 01 12
  39.143630 1  575             Rx   d 4 03 00 00 00
  39.147570 1  66F             Rx   d 8 80 45 4A D4 02 00 00 47
  39.167550 1  66F             Rx   d 8 C0 00 04 00 00 80 0A 50
  39.187230 1  66F             Rx   d 8 C1 68 6F 6E 65 20 62 6F
  39.206880 1  66F             Rx   d 8 C2 6F 6B 01 04 81 0D 3B
  39.226880 1  66F             Rx   d 8 C3 44 65 6D 75 74 68 20
  39.246880 1  66F             Rx   d 8 C4 44 65 6E 69 7A 02 04
  39.266860 1  66F             Rx   d 8 C5 81 0B 3B 44 65 6E 69
  39.288470 1  66F             Rx   d 8 C6 7A 65 20 62 69 6B 03
  39.306880 1  66F             Rx   d 8 C7 04 83 0D 3B 44 65 6E
  39.326850 1  66F             Rx   d 8 C8 6E 69 73 20 57 72 65
  39.344840 1  575             Rx   d 4 03 00 00 00
  39.346520 1  66F             Rx   d 3 C9 64 65
  39.372040 1  67C             Rx   d 3 0A D5 02
  39.387360 1  66F             Rx   d 8 80 0E 4A D4 02 00 00 44
  39.406930 1  66F             Rx   d 8 C0 00 04 00 80 01 81 02
  39.426570 1  66F             Rx   d 4 C1 83 03 81
  39.449920 1  67C             Rx   d 3 0A D5 02
  39.543610 1  575             Rx   d 4 03 00 00 00
  39.546960 1  66F             Rx   d 8 80 0E 4A D4 02 00 00 44
  39.566940 1  66F             Rx   d 8 C0 00 04 00 80 01 83 02
  39.586920 1  66F             Rx   d 4 C1 81 03 81
  39.598080 1  63C             Rx   d 8 3B C2 03 00 2F 00 03 04
  39.609810 1  67C             Rx   d 3 0A D5 02
  39.686540 1  55B             Rx   d 1 01
  39.716920 1  63B             Rx   d 8 3A 43 38 03 FB D4 80 00
  39.736830 1  66F             Rx   d 8 80 44 4A D4 02 00 00 47
  39.743620 1  575             Rx   d 4 03 00 00 00
  39.756720 1  66F             Rx   d 6 4A D6 02 01 01 12
  39.777980 1  66F             Rx   d 8 C0 00 04 00 00 80 0A 50
  39.796900 1  66F             Rx   d 8 C1 68 6F 6E 65 20 62 6F
  39.816900 1  66F             Rx   d 8 C2 6F 6B 01 04 83 0C 3B
  39.836880 1  66F             Rx   d 8 C3 44 61 6E 69 65 6C 20
  39.856920 1  66F             Rx   d 8 C4 44 61 6E 7A 02 04 81
  39.876460 1  6D2             Rx   d 3 3A 22 00
  39.877570 1  66F             Rx   d 8 C5 0D 3B 44 65 6D 75 74
  39.896840 1  66F             Rx   d 8 C6 68 20 44 65 6E 69 7A
  39.916920 1  66F             Rx   d 8 C7 03 04 81 0B 3B 44 65
  39.936890 1  66F             Rx   d 8 C8 6E 69 7A 65 20 62 69
  39.943630 1  575             Rx   d 4 03 00 00 00
  39.957430 1  66F             Rx   d 2 C9 6B
  39.972040 1  67C             Rx   d 3 0A D5 02
  39.987020 1  66F             Rx   d 6 4A D6 02 01 01 11
  40.007940 1  66F             Rx   d 8 80 46 4A D4 02 00 00 47
  40.026950 1  66F             Rx   d 8 C0 00 04 00 00 80 0A 50
  40.046920 1  66F             Rx   d 8 C1 68 6F 6E 65 20 62 6F
  40.066910 1  66F             Rx   d 8 C2 6F 6B 01 04 83 0D 3B
  40.087150 1  66F             Rx   d 8 C3 43 6C 61 75 73 21 20
  40.106880 1  66F             Rx   d 8 C4 55 6E 72 75 68 02 04
  40.126880 1  66F             Rx   d 8 C5 81 0C 3B 44 61 6E 69
  40.143650 1  575             Rx   d 4 03 00 00 00
  40.147550 1  66F             Rx   d 8 C6 65 6C 20 44 61 6E 7A
  40.166900 1  66F             Rx   d 8 C7 03 04 81 0D 3B 44 65
  40.188510 1  66F             Rx   d 8 C8 6D 75 74 68 20 44 65
  40.206550 1  66F             Rx   d 4 C9 6E 69 7A
  40.229910 1  67C             Rx   d 3 0A D5 02
  40.246640 1  66F             Rx   d 6 4A D6 02 01 01 10
  40.266950 1  66F             Rx   d 8 80 48 4A D4 02 00 00 47
  40.287240 1  66F             Rx   d 8 C0 00 04 00 00 80 0A 50
  40.306900 1  66F             Rx   d 8 C1 68 6F 6E 65 20 62 6F
  40.326910 1  66F             Rx   d 8 C2 6F 6B 01 04 83 0F 3B
  40.344870 1  575             Rx   d 4 03 00 00 00
  40.346930 1  66F             Rx   d 8 C3 43 68 72 69 73 74 69
  40.367910 1  66F             Rx   d 8 C4 61 6E 20 57 65 6E 74
  40.387140 1  66F             Rx   d 8 C5 02 04 81 0D 3B 43 6C
  40.406900 1  66F             Rx   d 8 C6 61 75 73 21 20 55 6E
  40.426920 1  66F             Rx   d 8 C7 72 75 68 03 04 81 0C
  40.447030 1  66F             Rx   d 8 C8 3B 44 61 6E 69 65 6C
  40.466730 1  66F             Rx   d 6 C9 20 44 61 6E 7A
  40.491240 1  67C             Rx   d 3 0A D5 02
  40.506630 1  66F             Rx   d 6 4A D6 02 01 01 0F
  40.526920 1  66F             Rx   d 8 80 4B 4A D4 02 00 00 47
  40.543640 1  575             Rx   d 4 03 00 00 00
  40.547970 1  66F             Rx   d 8 C0 00 04 00 00 80 0A 50
  40.566920 1  66F             Rx   d 8 C1 68 6F 6E 65 20 62 6F
  40.587280 1  66F             Rx   d 8 C2 6F 6B 01 04 83 0F 3B
  40.597410 1  63C             Rx   d 8 80 08 3B C3 38 03 CF FF
  40.606900 1  66F             Rx   d 8 C3 43 68 72 69 73 74 69
  40.617160 1  63C             Rx   d 5 C0 77 00 80 00
  40.627020 1  66F             Rx   d 8 C4 61 6E 20 57 61 67 6E
  40.646930 1  66F             Rx   d 8 C5 02 04 81 0F 3B 43 68
  40.666880 1  66F             Rx   d 8 C6 72 69 73 74 69 61 6E
  40.686570 1  55B             Rx   d 1 01
  40.687710 1  66F             Rx   d 8 C7 20 57 65 6E 74 03 04
  40.706900 1  66F             Rx   d 8 C8 81 0D 3B 43 6C 61 75
  40.716480 1  63B             Rx   d 3 3A 44 0A
  40.727910 1  66F             Rx   d 8 C9 73 21 20 55 6E 72 75
  40.743640 1  575             Rx   d 4 03 00 00 00
  40.746460 1  66F             Rx   d 2 CA 68
  40.772950 1  67C             Rx   d 3 0A D5 02
  40.787010 1  66F             Rx   d 6 4A D6 02 01 01 0E
  40.807070 1  66F             Rx   d 8 80 4D 4A D4 02 00 00 47
  40.826990 1  66F             Rx   d 8 C0 00 04 00 00 80 0A 50
  40.846960 1  66F             Rx   d 8 C1 68 6F 6E 65 20 62 6F
  40.866920 1  66F             Rx   d 8 C2 6F 6B 01 04 83 0F 3B
  40.876910 1  6D2             Rx   d 8 3A 02 03 00 28 00 03 00
  40.887890 1  66F             Rx   d 8 C3 43 68 72 69 73 74 69
  40.907920 1  66F             Rx   d 8 C4 61 6E 20 54 69 65 74
  40.926920 1  66F             Rx   d 8 C5 02 04 81 0F 3B 43 68
  40.943640 1  575             Rx   d 4 03 00 00 00
  40.946920 1  66F             Rx   d 8 C6 72 69 73 74 69 61 6E
  40.966930 1  66F             Rx   d 8 C7 20 57 61 67 6E 03 04
  40.987310 1  66F             Rx   d 8 C8 81 0F 3B 43 68 72 69
  41.006920 1  66F             Rx   d 8 C9 73 74 69 61 6E 20 57
  41.026590 1  66F             Rx   d 4 CA 65 6E 74
  41.050000 1  67C             Rx   d 3 0A D5 02
  41.066640 1  66F             Rx   d 6 4A D6 02 01 01 0D
  41.088350 1  66F             Rx   d 8 80 4D 4A D4 02 00 00 47
  41.107000 1  66F             Rx   d 8 C0 00 04 00 00 80 0A 50
  41.126940 1  66F             Rx   d 8 C1 68 6F 6E 65 20 62 6F
  41.143680 1  575             Rx   d 4 03 00 00 00
  41.147590 1  66F             Rx   d 8 C2 6F 6B 01 04 83 0F 3B
  41.166920 1  66F             Rx   d 8 C3 43 68 72 69 73 74 69
  41.187150 1  66F             Rx   d 8 C4 61 20 48 61 6D 61 63
  41.206390 1  66F             Rx   d 3 4A D7 01
  41.226930 1  66F             Rx   d 8 C5 02 04 81 0F 3B 43 68
  41.230450 1  67C             Rx   d 3 0A D7 01
  41.246920 1  66F             Rx   d 8 C6 72 69 73 74 69 61 6E
  41.267950 1  66F             Rx   d 8 C7 20 54 69 65 74 03 04
  41.287120 1  66F             Rx   d 8 C8 81 0F 3B 43 68 72 69
  41.306930 1  66F             Rx   d 8 C9 73 74 69 61 6E 20 57
  41.326600 1  66F             Rx   d 4 CA 61 67 6E
  41.344880 1  575             Rx   d 4 03 00 00 00
  41.351260 1  67C             Rx   d 3 0A D5 02
  41.366650 1  66F             Rx   d 6 4A D6 02 01 01 0C
  41.387300 1  66F             Rx   d 8 80 4C 4A D4 02 00 00 47
  41.407000 1  66F             Rx   d 8 C0 00 04 00 00 80 0A 50
  41.426940 1  66F             Rx   d 8 C1 68 6F 6E 65 20 62 6F
  41.447960 1  66F             Rx   d 8 C2 6F 6B 01 04 83 0E 3B
  41.466930 1  66F             Rx   d 8 C3 42 6F 75 72 67 65 74
  41.487120 1  66F             Rx   d 8 C4 74 20 41 6C 65 78 02
  41.495810 1  67C             Rx   d 8 2A D3 FF 00 00 00 00 FF
  41.507010 1  66F             Rx   d 8 C5 04 81 0F 3B 43 68 72
  41.527030 1  66F             Rx   d 8 4A D3 FF 00 00 00 00 00
  41.543660 1  575             Rx   d 4 03 00 00 00
  41.546800 1  66F             Rx   d 8 C6 69 73 74 69 61 20 48
